CITIFILE A.01.01
#Momentum: B.12.070 (*) built: Aug 11 2025 
#Momentum Date and Time: Wed Apr 15 09:15:27 2026

NAME PortSet1


CONSTANT NBR_OF_PORTS 8

VAR freq MAG 2

DATA GAMMA_1[1] RI
DATA Z0_1[1,1] RI
DATA LAMBADAI_1[1,1] RI

VAR_LIST_BEGIN
	 1000000000
	 5000000000
VAR_LIST_END

BEGIN
	 0 ,	 0 
	 0 ,	 0 
END
BEGIN
	 50 ,	 0 
	 50 ,	 0 
END
BEGIN
	 0 ,	 0 
	 0 ,	 0 
END
CITIFILE A.01.01
NAME PortSet2/TwoP0_Dsolver_data/first_odd_mode_is_1/most_even_mode_is_1/PMLG4/LS0

VAR freq MAG 7

DATA GAMMA_2[1] RI
DATA Z0_2[1,1] RI
DATA LAMBADAI_2[1,1] RI
DATA Zcir_2[1,1] RI
DATA Ycir_2[1,1] RI

VAR_LIST_BEGIN
	 1000000000
	 1010000000
	 1020000000
	 1030000000
	 2060000000
	 4120000000
	 5000000000
VAR_LIST_END

BEGIN
	 0.0110481695,	 28.74583431
	 0.01115873847,	 29.03327428
	 0.01126930975,	 29.32071495
	 0.01137988339,	 29.60815634
	 0.02278481319,	 59.22086914
	 0.04573319801,	 118.5108997
	 0.05560935181,	 143.8744765
END
BEGIN
	 51.4721212191581045658494986128 ,	 0.0197830282435191573409127840932 
	 51.4722967122111398907691182103 ,	 0.0197832619965862821498348012028 
	 51.4724715212473284964289632626 ,	 0.0197834956859049178323761708498 
	 51.4726456426491267848177812994 ,	 0.0197837294373267962022122645749 
	 51.489477273067393525707302615 ,	 0.0198102835912078514835066300748 
	 51.5312885478737783273572858889 ,	 0.019885241589519792038132095513 
	 51.5546481221260677330064936541 ,	 0.0199254946096844472169795636773 
END
BEGIN
	 0.0110481695,	 28.74583431
	 0.01115873847,	 29.03327428
	 0.01126930975,	 29.32071495
	 0.01137988339,	 29.60815634
	 0.02278481319,	 59.22086914
	 0.04573319801,	 118.5108997
	 0.05560935181,	 143.8744765
END
BEGIN
	 -1.84014823591434e-08 ,	 6.25081365580693e-10 
	 -1.85131843060977e-08 ,	 6.25083101118421e-10 
	 -1.86137655696847e-08 ,	 6.25084851101025e-10 
	 -1.87104692538076e-08 ,	 6.25086615164776e-10 
	 -1.08604711231142e-08 ,	 6.25339133271558e-10 
	 1.93112037910961e-07 ,	 6.2621238075764e-10 
	 3.99379737163474e-07 ,	 6.26716527335292e-10 
END
BEGIN
	 0.1617266046,	 3.348524516e-08
	 0.1633445873,	 3.34851098e-08
	 0.1649625946,	 3.34849761e-08
	 0.1665806274,	 3.348484406e-08
	 0.3334174348,	 3.347647371e-08
	 0.6686739816,	 3.346884361e-08
	 0.8126979578,	 3.34654412e-08
END
CITIFILE A.01.01
NAME PortSet3/TwoP0_Dsolver_data/first_odd_mode_is_1/most_even_mode_is_1/PMLG4/LS0

VAR freq MAG 7

DATA GAMMA_3[1] RI
DATA GAMMA_3[2] RI
DATA Z0_3[1,1] RI
DATA Z0_3[1,2] RI
DATA Z0_3[2,1] RI
DATA Z0_3[2,2] RI
DATA LAMBADAI_3[1,1] RI
DATA LAMBADAI_3[1,2] RI
DATA LAMBADAI_3[2,1] RI
DATA LAMBADAI_3[2,2] RI
DATA Zcir_3[1,1] RI
DATA Zcir_3[1,2] RI
DATA Zcir_3[2,1] RI
DATA Zcir_3[2,2] RI
DATA Ycir_3[1,1] RI
DATA Ycir_3[1,2] RI
DATA Ycir_3[2,1] RI
DATA Ycir_3[2,2] RI

VAR_LIST_BEGIN
	 1000000000
	 1010000000
	 1020000000
	 1030000000
	 2060000000
	 4120000000
	 5000000000
VAR_LIST_END

BEGIN
	 0.01104814836,	 28.7458344
	 0.01115871712,	 29.03327437
	 0.01126931052,	 29.32071499
	 0.01137988185,	 29.60815635
	 0.02278500029,	 59.22087195
	 0.04573319723,	 118.5108955
	 0.05560935186,	 143.8744762
END
BEGIN
	 0.01104814836,	 28.7458344
	 0.01115871712,	 29.03327437
	 0.01126931052,	 29.32071499
	 0.01137988185,	 29.60815635
	 0.02278500029,	 59.22087195
	 0.04573319723,	 118.5108955
	 0.05560935186,	 143.8744762
END
BEGIN
	 51.4721214758046841097893775441 ,	 0.0197830662387353112263710386287 
	 51.4722969688526674758577428292 ,	 0.0197832999902033852823723947267 
	 51.4724717006083452019993274007 ,	 0.0197834944769389765861777874534 
	 51.4726457653793332269742677454 ,	 0.0197837322112996566447762347707 
	 51.4894798070531081179979082663 ,	 0.0198101230773028366693999657855 
	 51.5312868690196026477678969968 ,	 0.0198852406318968007170600031941 
	 51.554648099861900334417441627 ,	 0.0199254945776506445231923692063 
END
BEGIN
	 -4.60852612732041e-22 ,	 -1.55489247304588e-15 
	 -3.73286696458751e-21 ,	 -1.26122468290278e-14 
	 -3.15886091286241e-21 ,	 -1.08578794229195e-14 
	 -2.84284232370083e-21 ,	 -9.77003439275777e-15 
	 -2.55800871102681e-22 ,	 -1.24307277376838e-15 
	 -4.97342349243954e-23 ,	 1.32083831517623e-15 
	 9.76080428923495e-22 ,	 -4.81378784704262e-15 
END
BEGIN
	 -9.7025347419534e-15 ,	 -1.92657368223079e-14 
	 -3.31581033828463e-15 ,	 -9.2606205088527e-15 
	 2.02115291055143e-18 ,	 -4.39614387279333e-18 
	 3.60291820395932e-15 ,	 7.31762155394571e-15 
	 -3.5582084157866e-16 ,	 2.07597140156909e-14 
	 -1.9771584085566e-14 ,	 1.22407777303086e-14 
	 3.86204807991789e-15 ,	 -1.60044973607935e-15 
END
BEGIN
	 51.4721214756058458306142711081 ,	 0.0197830662388678822638521381805 
	 51.4722969686538363021099939942 ,	 0.0197832999903267865715594808762 
	 51.4724717004096206096619425807 ,	 0.0197834944770716066042570702166 
	 51.4726457651805162640812341124 ,	 0.0197837322114334697442661337163 
	 51.4894798068538435131813457701 ,	 0.0198101230774293292358212426052 
	 51.5312868688183272070091334172 ,	 0.0198852406320259370020586686678 
	 51.554648099659431181862601079 ,	 0.0199254945778030746750264512457 
END
BEGIN
	 0.01104814836,	 28.7458344
	 0.01115871712,	 29.03327437
	 0.01126931052,	 29.32071499
	 0.01137988185,	 29.60815635
	 0.02278500029,	 59.22087195
	 0.04573319723,	 118.5108955
	 0.05560935186,	 143.8744762
END
BEGIN
	 0 ,	 0 
	 0 ,	 0 
	 0 ,	 0 
	 0 ,	 0 
	 0 ,	 0 
	 0 ,	 0 
	 0 ,	 0 
END
BEGIN
	 0 ,	 0 
	 0 ,	 0 
	 0 ,	 0 
	 0 ,	 0 
	 0 ,	 0 
	 0 ,	 0 
	 0 ,	 0 
END
BEGIN
	 0.01104814836,	 28.7458344
	 0.01115871712,	 29.03327437
	 0.01126931052,	 29.32071499
	 0.01137988185,	 29.60815635
	 0.02278500029,	 59.22087195
	 0.04573319723,	 118.5108955
	 0.05560935186,	 143.8744762
END
BEGIN
	 -2.41853780225555e-08 ,	 6.2508137060597e-10 
	 -2.43546689794594e-08 ,	 6.2508310614362e-10 
	 -1.84115307218929e-08 ,	 6.25084854247742e-10 
	 -1.91361395301785e-08 ,	 6.25086616935231e-10 
	 3.99498741271258e-08 ,	 6.25339193766948e-10 
	 1.9332247691399e-07 ,	 6.26212338321282e-10 
	 3.99413719672122e-07 ,	 6.26716525541248e-10 
END
BEGIN
	 1.18643691958844e-16 ,	 -7.26296825785609e-30 
	 9.71981170742953e-16 ,	 -5.89127328441912e-29 
	 8.45062719640596e-16 ,	 -5.07177879766521e-29 
	 7.67850780434382e-16 ,	 -4.56367582454255e-29 
	 1.95407273026056e-16 ,	 -5.81165862700532e-30 
	 -4.15506010583316e-16 ,	 6.19342856215007e-30 
	 1.83840026406493e-15 ,	 -2.26061385436158e-29 
END
BEGIN
	 1.46975804109613e-15 ,	 -1.17918226543483e-25 
	 7.13584993065813e-16 ,	 -4.03106460672276e-26 
	 3.42209893547887e-19 ,	 2.45244822080872e-29 
	 -5.75000853783139e-16 ,	 4.37881841166962e-26 
	 -3.26338565361715e-15 ,	 -4.22443507981984e-27 
	 -3.85307338681892e-15 ,	 -2.402084398081e-25 
	 6.11786715392993e-16 ,	 4.69408947272127e-26 
END
BEGIN
	 -2.41853939692178e-08 ,	 6.25081370603555e-10 
	 -2.43546843788165e-08 ,	 6.25083106141205e-10 
	 -1.84115469890455e-08 ,	 6.25084854245328e-10 
	 -1.91361560527691e-08 ,	 6.25086616932817e-10 
	 3.99498421904329e-08 ,	 6.25339193764528e-10 
	 1.93322411855788e-07 ,	 6.26212338318835e-10 
	 3.99413631571588e-07 ,	 6.26716525538787e-10 
END
BEGIN
	 0.1617266042,	 3.34852451e-08
	 0.163344587,	 3.348510974e-08
	 0.1649625945,	 3.348497604e-08
	 0.1665806272,	 3.348484399e-08
	 0.3334174363,	 3.347647365e-08
	 0.6686739806,	 3.346884352e-08
	 0.8126979571,	 3.346544113e-08
END
BEGIN
	 -6.35567162421021e-15 ,	 1.16663189964307e-27 
	 -5.20680949789523e-14 ,	 9.46294271390721e-27 
	 -4.52688884704149e-14 ,	 8.14661199267238e-27 
	 -4.11324691526022e-14 ,	 7.33041640505151e-27 
	 -1.04607940043456e-14 ,	 9.33011367879991e-28 
	 2.22073259477509e-14 ,	 -9.93095057765467e-28 
	 -9.81669621578552e-14 ,	 3.62251201110877e-27 
END
BEGIN
	 -7.87035734666935e-14 ,	 6.3264431432192e-24 
	 -3.82155380388779e-14 ,	 2.16403346436379e-24 
	 -1.83382074514287e-17 ,	 -1.31154557668637e-27 
	 3.07901642012337e-14 ,	 -2.34931839727958e-24 
	 1.74702071170843e-13 ,	 2.15762071637831e-25 
	 2.06189691602821e-13 ,	 1.28321553368663e-23 
	 -3.27290876221825e-14 ,	 -2.50574850316922e-24 
END
BEGIN
	 0.1617266042,	 3.34852451e-08
	 0.163344587,	 3.348510974e-08
	 0.1649625945,	 3.348497604e-08
	 0.1665806272,	 3.348484399e-08
	 0.3334174364,	 3.347647365e-08
	 0.6686739806,	 3.346884352e-08
	 0.8126979571,	 3.346544113e-08
END
CITIFILE A.01.01
NAME PortSet4/TwoP0_Dsolver_data/first_odd_mode_is_1/most_even_mode_is_1/PMLG4/LS0

VAR freq MAG 7

DATA GAMMA_4[1] RI
DATA Z0_4[1,1] RI
DATA LAMBADAI_4[1,1] RI
DATA Zcir_4[1,1] RI
DATA Ycir_4[1,1] RI

VAR_LIST_BEGIN
	 1000000000
	 1010000000
	 1020000000
	 1030000000
	 2060000000
	 4120000000
	 5000000000
VAR_LIST_END

BEGIN
	 0.01104816951,	 28.74583432
	 0.01115873848,	 29.03327429
	 0.01126930977,	 29.32071496
	 0.01137988341,	 29.60815635
	 0.02278481321,	 59.22086916
	 0.04573319806,	 118.5108997
	 0.05560935188,	 143.8744766
END
BEGIN
	 51.472121321421923312300350517 ,	 0.0197830283004664445045683862645 
	 51.4722968144746815255530236755 ,	 0.0197832620535346032086820855511 
	 51.4724716235106924955289287027 ,	 0.0197834957428532874634807825487 
	 51.4726457449122278831055155024 ,	 0.0197837294942751346082943086913 
	 51.4894773752687839873942721169 ,	 0.0198102836481811248048323648163 
	 51.5312886498103068788623204455 ,	 0.0198852416465549151902703073347 
	 51.5546482239027028526834328659 ,	 0.0199254946667863641618367864794 
END
BEGIN
	 0.01104816951,	 28.74583432
	 0.01115873848,	 29.03327429
	 0.01126930977,	 29.32071496
	 0.01137988341,	 29.60815635
	 0.02278481321,	 59.22086916
	 0.04573319806,	 118.5108997
	 0.05560935188,	 143.8744766
END
BEGIN
	 -1.84015160457386e-08 ,	 6.25081367034083e-10 
	 -1.85132184244222e-08 ,	 6.25083102571804e-10 
	 -1.86137999781417e-08 ,	 6.25084852554404e-10 
	 -1.87105039786348e-08 ,	 6.2508661661815e-10 
	 -1.08605420867484e-08 ,	 6.25339134724176e-10 
	 1.93111888948522e-07 ,	 6.26212382207912e-10 
	 3.99379541734732e-07 ,	 6.26716528784268e-10 
END
BEGIN
	 0.1617266045,	 3.348524511e-08
	 0.1633445872,	 3.348510975e-08
	 0.1649625945,	 3.348497605e-08
	 0.1665806272,	 3.3484844e-08
	 0.3334174346,	 3.347647365e-08
	 0.668673981,	 3.346884355e-08
	 0.8126979572,	 3.346544115e-08
END
CITIFILE A.01.01
NAME PortSet5/TwoP0_Dsolver_data/first_odd_mode_is_1/most_even_mode_is_1/PMLG4/LS0

VAR freq MAG 7

DATA GAMMA_5[1] RI
DATA Z0_5[1,1] RI
DATA LAMBADAI_5[1,1] RI
DATA Zcir_5[1,1] RI
DATA Ycir_5[1,1] RI

VAR_LIST_BEGIN
	 1000000000
	 1010000000
	 1020000000
	 1030000000
	 2060000000
	 4120000000
	 5000000000
VAR_LIST_END

BEGIN
	 0.009999375897,	 27.93948159
	 0.01009940251,	 28.2188425
	 0.01019943005,	 28.49820361
	 0.01029945853,	 28.7775649
	 0.020609313,	 57.55453898
	 0.04129804172,	 115.1442561
	 0.05017542918,	 139.7670255
END
BEGIN
	 94.5067643990324910419076331891 ,	 0.0338238215721780588474132400734 
	 94.5070688626517494412837550044 ,	 0.0338240796449151143177047629251 
	 94.5073720496700531157330260612 ,	 0.033824337146961071243200791514 
	 94.507674007315827680031361524 ,	 0.0338245941091486340690508427542 
	 94.5364603536305452280430472456 ,	 0.0338520713951208432335171494287 
	 94.6042672126174437607915024273 ,	 0.0339302437866835435165135947955 
	 94.640903433892646035019424744 ,	 0.0339739566846225388152546997844 
END
BEGIN
	 0.009999375897,	 27.93948159
	 0.01009940251,	 28.2188425
	 0.01019943005,	 28.49820361
	 0.01029945853,	 28.7775649
	 0.020609313,	 57.55453898
	 0.04129804172,	 115.1442561
	 0.05017542918,	 139.7670255
END
BEGIN
	 -3.02018296695523e-08 ,	 1.11550314099603e-09 
	 -3.03866388362203e-08 ,	 1.11550539478002e-09 
	 -3.05687597960264e-08 ,	 1.11550766684853e-09 
	 -3.07465368950578e-08 ,	 1.11550995732222e-09 
	 -2.35225107681966e-08 ,	 1.11583827911616e-09 
	 2.6091164298872e-07 ,	 1.11697987428609e-09 
	 5.54978437084658e-07 ,	 1.11764313656674e-09 
END
BEGIN
	 0.07972108164,	 1.77258103e-08
	 0.08051829316,	 1.77257319e-08
	 0.08131550794,	 1.772565428e-08
	 0.08211272609,	 1.77255774e-08
	 0.1642576984,	 1.771999806e-08
	 0.3289075458,	 1.771270885e-08
	 0.3994507357,	 1.77095077e-08
END
CITIFILE A.01.01
NAME PortSet6/TwoP0_Dsolver_data/first_odd_mode_is_1/most_even_mode_is_1/PMLG4/LS0

VAR freq MAG 7

DATA GAMMA_6[1] RI
DATA Z0_6[1,1] RI
DATA LAMBADAI_6[1,1] RI
DATA Zcir_6[1,1] RI
DATA Ycir_6[1,1] RI

VAR_LIST_BEGIN
	 1000000000
	 1010000000
	 1020000000
	 1030000000
	 2060000000
	 4120000000
	 5000000000
VAR_LIST_END

BEGIN
	 0.009454103423,	 27.51333214
	 0.009548655286,	 27.78842581
	 0.009643207498,	 28.06351945
	 0.009737760067,	 28.33861307
	 0.01947985368,	 56.67454226
	 0.03900212095,	 113.3692901
	 0.04736532536,	 137.6029487
END
BEGIN
	 138.215802864031587660065270029 ,	 0.0474937003941486579616793051173 
	 138.216219733761136012617498636 ,	 0.0474939633682084014210111888588 
	 138.216634691100438203648081981 ,	 0.0474942250567023452334503019756 
	 138.217047792951774454195401631 ,	 0.0474944855159115178477868823848 
	 138.255656456403841048086178489 ,	 0.0475202668680154635683088315545 
	 138.342972625567682598557439633 ,	 0.047592329569299152147721088113 
	 138.389299291971923366872943006 ,	 0.047633792491547380376637477184 
END
BEGIN
	 0.009454103423,	 27.51333214
	 0.009548655286,	 27.78842581
	 0.009643207498,	 28.06351945
	 0.009737760067,	 28.33861307
	 0.01947985368,	 56.67454226
	 0.03900212095,	 113.3692901
	 0.04736532536,	 137.6029487
END
BEGIN
	 -9.1797865081969e-09 ,	 1.60653594397346e-09 
	 -9.13216573845618e-09 ,	 1.60653849728933e-09 
	 -9.0802193771812e-09 ,	 1.60654107150513e-09 
	 -9.02412810102615e-09 ,	 1.60654366657946e-09 
	 2.8098806962619e-08 ,	 1.60691633102846e-09 
	 4.26651001769404e-07 ,	 1.60821781819533e-09 
	 8.06630464846025e-07 ,	 1.60897687315503e-09 
END
BEGIN
	 0.05153755309,	 1.193537715e-08
	 0.05205282962,	 1.193532413e-08
	 0.05256810564,	 1.193527159e-08
	 0.05308338119,	 1.193521952e-08
	 0.1061603889,	 1.193132152e-08
	 0.2124150211,	 1.192591651e-08
	 0.2578745717,	 1.192355838e-08
END
CITIFILE A.01.01
NAME PortSet7/TwoP0_Dsolver_data/first_odd_mode_is_1/most_even_mode_is_1/PMLG4/LS0

VAR freq MAG 7

DATA GAMMA_7[1] RI
DATA Z0_7[1,1] RI
DATA LAMBADAI_7[1,1] RI
DATA Zcir_7[1,1] RI
DATA Ycir_7[1,1] RI

VAR_LIST_BEGIN
	 1000000000
	 1010000000
	 1020000000
	 1030000000
	 2060000000
	 4120000000
	 5000000000
VAR_LIST_END

BEGIN
	 0.0104641439,	 28.29782729
	 0.01056883945,	 28.58077745
	 0.01067353648,	 28.863728
	 0.01077823501,	 29.14667894
	 0.02157265138,	 58.29477
	 0.04325890971,	 116.6384532
	 0.05257653315,	 141.5893326
END
BEGIN
	 71.8450747136257064084929879755 ,	 0.0265678032177174283656739817161 
	 71.8453139990480167398345656693 ,	 0.0265680526055903781790235029803 
	 71.8455523075237465491227339953 ,	 0.026568301766890144166577414353 
	 71.8457896750947924147112644278 ,	 0.0265685507193795106273270789643 
	 71.8685859596055109932422055863 ,	 0.0265960839431524376230697725987 
	 71.9234817094934868464406463318 ,	 0.0266744678118108619058190811302 
	 71.9535277871513159198002540506 ,	 0.0267175230651146601579259964865 
END
BEGIN
	 0.0104641439,	 28.29782729
	 0.01056883945,	 28.58077745
	 0.01067353648,	 28.863728
	 0.01077823501,	 29.14667894
	 0.02157265138,	 58.29477
	 0.04325890971,	 116.6384532
	 0.05257653315,	 141.5893326
END
BEGIN
	 -3.69146343284776e-08 ,	 8.58894171335024e-10 
	 -3.71874685997121e-08 ,	 8.58896187066045e-10 
	 -3.74584782163699e-08 ,	 8.58898219139772e-10 
	 -3.77255279125285e-08 ,	 8.58900267608575e-10 
	 -4.41869228177613e-08 ,	 8.5919360520563e-10 
	 1.66527558218693e-07 ,	 8.60210623649809e-10 
	 4.00230293427783e-07 ,	 8.6079985599249e-10 
END
BEGIN
	 0.1097415989,	 2.361602129e-08
	 0.1108392106,	 2.361591941e-08
	 0.111936832,	 2.361581862e-08
	 0.1130344631,	 2.361571889e-08
	 0.2261660019,	 2.360880001e-08
	 0.4531698959,	 2.360067764e-08
	 0.5505436566,	 2.359712421e-08
END
