CITIFILE A.01.01
#Momentum: B.10.20.363 (*) 2012.08 Sep  5 2012 
#Momentum Date and Time: Mon Sep 10 16:09:14 2012

NAME Momentum.SP

#  mode: MW    project: proj    reference: S_50

CONSTANT NBR_OF_PORTS 8

CONSTANT NORMALIZATION 1

VAR freq MAG 12

DATA S[1,1] RI
DATA S[1,2] RI
DATA S[1,3] RI
DATA S[1,4] RI
DATA S[1,5] RI
DATA S[1,6] RI
DATA S[1,7] RI
DATA S[1,8] RI
DATA S[2,1] RI
DATA S[2,2] RI
DATA S[2,3] RI
DATA S[2,4] RI
DATA S[2,5] RI
DATA S[2,6] RI
DATA S[2,7] RI
DATA S[2,8] RI
DATA S[3,1] RI
DATA S[3,2] RI
DATA S[3,3] RI
DATA S[3,4] RI
DATA S[3,5] RI
DATA S[3,6] RI
DATA S[3,7] RI
DATA S[3,8] RI
DATA S[4,1] RI
DATA S[4,2] RI
DATA S[4,3] RI
DATA S[4,4] RI
DATA S[4,5] RI
DATA S[4,6] RI
DATA S[4,7] RI
DATA S[4,8] RI
DATA S[5,1] RI
DATA S[5,2] RI
DATA S[5,3] RI
DATA S[5,4] RI
DATA S[5,5] RI
DATA S[5,6] RI
DATA S[5,7] RI
DATA S[5,8] RI
DATA S[6,1] RI
DATA S[6,2] RI
DATA S[6,3] RI
DATA S[6,4] RI
DATA S[6,5] RI
DATA S[6,6] RI
DATA S[6,7] RI
DATA S[6,8] RI
DATA S[7,1] RI
DATA S[7,2] RI
DATA S[7,3] RI
DATA S[7,4] RI
DATA S[7,5] RI
DATA S[7,6] RI
DATA S[7,7] RI
DATA S[7,8] RI
DATA S[8,1] RI
DATA S[8,2] RI
DATA S[8,3] RI
DATA S[8,4] RI
DATA S[8,5] RI
DATA S[8,6] RI
DATA S[8,7] RI
DATA S[8,8] RI
DATA S_50[1,1] RI
DATA S_50[1,2] RI
DATA S_50[1,3] RI
DATA S_50[1,4] RI
DATA S_50[1,5] RI
DATA S_50[1,6] RI
DATA S_50[1,7] RI
DATA S_50[1,8] RI
DATA S_50[2,1] RI
DATA S_50[2,2] RI
DATA S_50[2,3] RI
DATA S_50[2,4] RI
DATA S_50[2,5] RI
DATA S_50[2,6] RI
DATA S_50[2,7] RI
DATA S_50[2,8] RI
DATA S_50[3,1] RI
DATA S_50[3,2] RI
DATA S_50[3,3] RI
DATA S_50[3,4] RI
DATA S_50[3,5] RI
DATA S_50[3,6] RI
DATA S_50[3,7] RI
DATA S_50[3,8] RI
DATA S_50[4,1] RI
DATA S_50[4,2] RI
DATA S_50[4,3] RI
DATA S_50[4,4] RI
DATA S_50[4,5] RI
DATA S_50[4,6] RI
DATA S_50[4,7] RI
DATA S_50[4,8] RI
DATA S_50[5,1] RI
DATA S_50[5,2] RI
DATA S_50[5,3] RI
DATA S_50[5,4] RI
DATA S_50[5,5] RI
DATA S_50[5,6] RI
DATA S_50[5,7] RI
DATA S_50[5,8] RI
DATA S_50[6,1] RI
DATA S_50[6,2] RI
DATA S_50[6,3] RI
DATA S_50[6,4] RI
DATA S_50[6,5] RI
DATA S_50[6,6] RI
DATA S_50[6,7] RI
DATA S_50[6,8] RI
DATA S_50[7,1] RI
DATA S_50[7,2] RI
DATA S_50[7,3] RI
DATA S_50[7,4] RI
DATA S_50[7,5] RI
DATA S_50[7,6] RI
DATA S_50[7,7] RI
DATA S_50[7,8] RI
DATA S_50[8,1] RI
DATA S_50[8,2] RI
DATA S_50[8,3] RI
DATA S_50[8,4] RI
DATA S_50[8,5] RI
DATA S_50[8,6] RI
DATA S_50[8,7] RI
DATA S_50[8,8] RI
DATA S_Z0[1,1] RI
DATA S_Z0[1,2] RI
DATA S_Z0[1,3] RI
DATA S_Z0[1,4] RI
DATA S_Z0[1,5] RI
DATA S_Z0[1,6] RI
DATA S_Z0[1,7] RI
DATA S_Z0[1,8] RI
DATA S_Z0[2,1] RI
DATA S_Z0[2,2] RI
DATA S_Z0[2,3] RI
DATA S_Z0[2,4] RI
DATA S_Z0[2,5] RI
DATA S_Z0[2,6] RI
DATA S_Z0[2,7] RI
DATA S_Z0[2,8] RI
DATA S_Z0[3,1] RI
DATA S_Z0[3,2] RI
DATA S_Z0[3,3] RI
DATA S_Z0[3,4] RI
DATA S_Z0[3,5] RI
DATA S_Z0[3,6] RI
DATA S_Z0[3,7] RI
DATA S_Z0[3,8] RI
DATA S_Z0[4,1] RI
DATA S_Z0[4,2] RI
DATA S_Z0[4,3] RI
DATA S_Z0[4,4] RI
DATA S_Z0[4,5] RI
DATA S_Z0[4,6] RI
DATA S_Z0[4,7] RI
DATA S_Z0[4,8] RI
DATA S_Z0[5,1] RI
DATA S_Z0[5,2] RI
DATA S_Z0[5,3] RI
DATA S_Z0[5,4] RI
DATA S_Z0[5,5] RI
DATA S_Z0[5,6] RI
DATA S_Z0[5,7] RI
DATA S_Z0[5,8] RI
DATA S_Z0[6,1] RI
DATA S_Z0[6,2] RI
DATA S_Z0[6,3] RI
DATA S_Z0[6,4] RI
DATA S_Z0[6,5] RI
DATA S_Z0[6,6] RI
DATA S_Z0[6,7] RI
DATA S_Z0[6,8] RI
DATA S_Z0[7,1] RI
DATA S_Z0[7,2] RI
DATA S_Z0[7,3] RI
DATA S_Z0[7,4] RI
DATA S_Z0[7,5] RI
DATA S_Z0[7,6] RI
DATA S_Z0[7,7] RI
DATA S_Z0[7,8] RI
DATA S_Z0[8,1] RI
DATA S_Z0[8,2] RI
DATA S_Z0[8,3] RI
DATA S_Z0[8,4] RI
DATA S_Z0[8,5] RI
DATA S_Z0[8,6] RI
DATA S_Z0[8,7] RI
DATA S_Z0[8,8] RI
DATA GAMMA[1] RI
DATA GAMMA[4] RI
DATA GAMMA[5] RI
DATA GAMMA[6] RI
DATA GAMMA[7] RI
DATA Z0[1] RI
DATA Z0[2] RI
DATA Z0[3] RI
DATA Z0[4] RI
DATA Z0[5] RI
DATA Z0[6] RI
DATA Z0[7] RI
DATA Z0[8] RI
DATA PORTZ[1] RI
DATA PORTZ[2] RI
DATA PORTZ[3] RI
DATA PORTZ[4] RI
DATA PORTZ[5] RI
DATA PORTZ[6] RI
DATA PORTZ[7] RI
DATA PORTZ[8] RI

VAR_LIST_BEGIN
	 1000000000
	 1222222222
	 1666666667
	 2000000000
	 2333333333
	 3000000000
	 3333333333
	 3666666667
	 4111111111
	 4407407408
	 4703703704
	 5000000000
VAR_LIST_END

BEGIN
	 0.0522847097,	 0.491935862
	 0.146569871,	 0.40946868
	 0.263766368,	 0.327281221
	 0.447842163,	 0.240598439
	 0.593402126,	-0.0679899776
	 0.0210025649,	-0.55273907
	-0.239873374,	-0.385151183
	-0.318820879,	-0.221654158
	-0.440822672,	-0.0692521525
	-0.528106235,	 0.161201991
	-0.429348548,	 0.491873535
	-0.0827431337,	 0.701094865
END
BEGIN
	-0.128244363,	-0.140195989
	-0.185136917,	-0.0667936172
	-0.171535676,	 0.136385049
	-0.0197266598,	 0.238534653
	 0.179261364,	 0.182466079
	 0.147453143,	-0.209177113
	-0.0539001768,	-0.238736209
	-0.2019367,	-0.122194986
	-0.20288918,	 0.115367984
	-0.0766033991,	 0.22239476
	 0.0934401075,	 0.217586184
	 0.216722087,	 0.0955967924
END
BEGIN
	-0.129047503,	-0.139179937
	-0.185460824,	-0.0652285547
	-0.169833312,	 0.138048232
	-0.0166276754,	 0.238386216
	 0.181595511,	 0.179392205
	 0.142904106,	-0.211252784
	-0.0587881123,	-0.236533325
	-0.203831546,	-0.116806172
	-0.198784501,	 0.120198584
	-0.0698264173,	 0.223650458
	 0.100080421,	 0.213950295
	 0.219800946,	 0.0877420412
END
BEGIN
	-0.275442193,	-0.136820723
	-0.276327517,	 0.0287256147
	-0.109264864,	 0.203778809
	 0.0366349527,	 0.229633345
	 0.206425732,	 0.161542407
	 0.128781282,	-0.251536756
	-0.0916542912,	-0.247231459
	-0.227340337,	-0.114221088
	-0.235796818,	 0.145416676
	-0.0747427163,	 0.290349793
	 0.166565652,	 0.258438879
	 0.28308746,	 0.047937819
END
BEGIN
	 0.557249144,	-0.254605599
	 0.499571311,	-0.449625308
	 0.127839264,	-0.678023154
	-0.167644542,	-0.566870751
	-0.234117679,	-0.346313193
	-0.192727513,	-0.42250366
	-0.441462618,	-0.429884449
	-0.659008123,	-0.199720161
	-0.598215364,	 0.231127948
	-0.371036019,	 0.363475396
	-0.184346441,	 0.2991394
	-0.184792948,	 0.174138211
END
BEGIN
	 0.24921189,	-0.278311572
	 0.176369069,	-0.306406804
	 0.0725432569,	-0.304602322
	 0.0277281659,	-0.320528267
	-0.0595475828,	-0.356773064
	-0.280380133,	-0.220241024
	-0.285387852,	-0.118011602
	-0.269614452,	-0.065711744
	-0.288286056,	-0.0205368054
	-0.316282558,	 0.0393684542
	-0.316211378,	 0.132969638
	-0.258813536,	 0.22126259
END
BEGIN
	-0.0612494738,	-0.180725858
	-0.13050139,	-0.148967404
	-0.221400206,	-0.00303242036
	-0.19028016,	 0.150505923
	-0.0452648503,	 0.256081144
	 0.252793136,	 0.0665696604
	 0.225772685,	-0.108309414
	 0.105277332,	-0.217565583
	-0.1004772,	-0.216735968
	-0.207045045,	-0.122232265
	-0.240682541,	 0.0204404613
	-0.181913725,	 0.157893194
END
BEGIN
	-0.0608568687,	-0.180802098
	-0.130115833,	-0.14927544
	-0.22140784,	-0.00373678271
	-0.190876243,	 0.149821089
	-0.0463743709,	 0.255966078
	 0.252535161,	 0.0679102995
	 0.226443588,	-0.107039122
	 0.106650737,	-0.216928854
	-0.0989998906,	-0.217427287
	-0.206201942,	-0.123673762
	-0.240858123,	 0.0188379971
	-0.182886792,	 0.156932065
END
BEGIN
	-0.128244363,	-0.140195989
	-0.185136917,	-0.0667936172
	-0.171535676,	 0.136385049
	-0.0197266598,	 0.238534653
	 0.179261364,	 0.182466079
	 0.147453143,	-0.209177113
	-0.0539001768,	-0.238736209
	-0.2019367,	-0.122194986
	-0.20288918,	 0.115367984
	-0.0766033991,	 0.22239476
	 0.0934401075,	 0.217586184
	 0.216722087,	 0.0955967924
END
BEGIN
	 0.0287305034,	 0.300012747
	 0.0601108587,	 0.238776175
	 0.070016296,	 0.177039041
	 0.0849823104,	 0.170598469
	 0.12592893,	 0.160430033
	 0.17692561,	 0.0615851732
	 0.157879032,	 0.0271344936
	 0.146646747,	 0.0240591082
	 0.180390357,	 0.0263607709
	 0.22761912,	 0.000637207138
	 0.277352776,	-0.0618416113
	 0.310938978,	-0.170574864
END
BEGIN
	-0.134717991,	-0.18890656
	-0.184213698,	-0.110893642
	-0.190528959,	 0.0503047085
	-0.122945732,	 0.146886115
	-0.0110941675,	 0.186388227
	 0.153392691,	 0.0604171931
	 0.149443026,	-0.0269622411
	 0.113370217,	-0.089714934
	 0.0441462026,	-0.144251922
	-0.0202954492,	-0.166390264
	-0.107114576,	-0.162946204
	-0.208093203,	-0.107323076
END
BEGIN
	 0.0145492111,	 0.0629481666
	 0.0504508451,	 0.0268485458
	 0.0163571551,	-0.047638601
	-0.0414687377,	-0.0258623523
	-0.032845435,	 0.0357039563
	 0.0411433263,	-0.0212028937
	-0.0116662035,	-0.0433719972
	-0.0452016762,	 0.000816551869
	 0.0094430727,	 0.0482977479
	 0.0526858865,	 0.0109121631
	 0.0325780258,	-0.0498145102
	-0.0402077797,	-0.0532933091
END
BEGIN
	 0.0243140613,	-0.279359875
	-0.075210412,	-0.28453498
	-0.277422666,	-0.181367008
	-0.361765293,	 0.00687261151
	-0.304831901,	 0.234012344
	 0.135478939,	 0.351130392
	 0.292238188,	 0.205104715
	 0.343420906,	 0.0201353856
	 0.270585847,	-0.213632102
	 0.136472661,	-0.326043562
	-0.0490193489,	-0.359524428
	-0.235688513,	-0.283794177
END
BEGIN
	-0.0790826695,	-0.00285250877
	-0.0659706919,	 0.0329057914
	-0.00463699358,	 0.0700602904
	 0.0486230791,	 0.0504081779
	 0.0688367191,	-0.00484066219
	-0.0141881869,	-0.0570531693
	-0.0448713321,	-0.026666924
	-0.0472044033,	 0.00873954712
	-0.0227596354,	 0.0430842633
	 0.00721295664,	 0.0532860418
	 0.0448252444,	 0.0433935901
	 0.0745187556,	 0.00343132294
END
BEGIN
	 0.804965733,	-0.162827175
	 0.78711523,	-0.301706939
	 0.667236375,	-0.521932536
	 0.544544642,	-0.62811108
	 0.425671412,	-0.695089772
	 0.202393418,	-0.808126292
	 0.0561131847,	-0.854009522
	-0.115308299,	-0.860684962
	-0.344370993,	-0.787885507
	-0.473788349,	-0.691051289
	-0.57150831,	-0.563275018
	-0.62446329,	-0.409790581
END
BEGIN
	-0.0482702865,	-0.229707928
	-0.109109636,	-0.189326311
	-0.182890193,	-0.0855554703
	-0.196881606,	 0.00697027264
	-0.165667254,	 0.0973159248
	-0.010109204,	 0.167810471
	 0.0542904425,	 0.143748078
	 0.096087845,	 0.108823991
	 0.137754885,	 0.0599206141
	 0.165419578,	 0.0169349809
	 0.187122186,	-0.047412148
	 0.184402831,	-0.140321596
END
BEGIN
	-0.129047503,	-0.139179937
	-0.185460824,	-0.0652285547
	-0.169833312,	 0.138048232
	-0.0166276754,	 0.238386216
	 0.181595511,	 0.179392205
	 0.142904106,	-0.211252784
	-0.0587881122,	-0.236533325
	-0.203831546,	-0.116806172
	-0.198784501,	 0.120198584
	-0.0698264173,	 0.223650458
	 0.100080421,	 0.213950295
	 0.219800946,	 0.0877420412
END
BEGIN
	-0.134717991,	-0.18890656
	-0.184213698,	-0.110893642
	-0.190528959,	 0.0503047086
	-0.122945732,	 0.146886115
	-0.0110941675,	 0.186388227
	 0.153392691,	 0.0604171931
	 0.149443026,	-0.0269622411
	 0.113370217,	-0.089714934
	 0.0441462026,	-0.144251922
	-0.0202954492,	-0.166390264
	-0.107114576,	-0.162946204
	-0.208093203,	-0.107323076
END
BEGIN
	 0.0304900196,	 0.298348296
	 0.0610073916,	 0.236834053
	 0.0696743785,	 0.175809424
	 0.0846161839,	 0.17010207
	 0.125767699,	 0.160117044
	 0.175991898,	 0.0625412623
	 0.158022184,	 0.0299615572
	 0.149821422,	 0.0277255916
	 0.18856825,	 0.0270172589
	 0.237648119,	-0.0037134215
	 0.28621715,	-0.0730251151
	 0.313701223,	-0.188887151
END
BEGIN
	 0.0150887725,	 0.0631142159
	 0.0508232738,	 0.0267747748
	 0.0160559061,	-0.0473817088
	-0.0414995175,	-0.0248116854
	-0.0318880215,	 0.0367061918
	 0.0412874501,	-0.0215780062
	-0.0119487933,	-0.0429188356
	-0.0447660808,	 0.00173351255
	 0.01037354,	 0.0481256266
	 0.0526384278,	 0.0102082202
	 0.031428155,	-0.0496069964
	-0.0408184464,	-0.0512599753
END
BEGIN
	 0.0225888684,	-0.279276003
	-0.0772733019,	-0.283692446
	-0.278917796,	-0.178200512
	-0.360975191,	 0.011459118
	-0.300567679,	 0.23799105
	 0.141790635,	 0.347167939
	 0.295340796,	 0.197884136
	 0.342117947,	 0.0119728356
	 0.263571437,	-0.219432895
	 0.126779255,	-0.328103477
	-0.0595276527,	-0.356479971
	-0.244320428,	-0.275057649
END
BEGIN
	-0.079220926,	-0.00215858859
	-0.0657411499,	 0.0336009471
	-0.00389920688,	 0.0701631816
	 0.049124017,	 0.0498465263
	 0.0685289318,	-0.00560552416
	-0.0150141671,	-0.0560685582
	-0.04470804,	-0.0251021945
	-0.0458569344,	 0.0100467581
	-0.0203979265,	 0.0429280974
	 0.00947569385,	 0.0516916058
	 0.0460909238,	 0.0403443595
	 0.0737000805,	-0.000485407543
END
BEGIN
	-0.0501139689,	-0.229212112
	-0.110940539,	-0.188125702
	-0.183910686,	-0.0829298288
	-0.196498091,	 0.0102819291
	-0.163447604,	 0.100392582
	-0.00593765952,	 0.167610831
	 0.0580243941,	 0.141828877
	 0.0989373342,	 0.105582571
	 0.138999126,	 0.0551988816
	 0.165050326,	 0.0112944664
	 0.18433154,	-0.0536696421
	 0.178081665,	-0.146240839
END
BEGIN
	 0.805389337,	-0.164075116
	 0.787195259,	-0.30326997
	 0.666543109,	-0.523788467
	 0.543316224,	-0.630004772
	 0.42394257,	-0.697005537
	 0.198993284,	-0.80996717
	 0.0515223345,	-0.85505908
	-0.12074187,	-0.860195038
	-0.349651503,	-0.784616402
	-0.477854901,	-0.685908531
	-0.573288012,	-0.556705732
	-0.622747931,	-0.403001655
END
BEGIN
	-0.275442193,	-0.136820723
	-0.276327517,	 0.0287256147
	-0.109264864,	 0.203778809
	 0.0366349527,	 0.229633345
	 0.206425732,	 0.161542407
	 0.128781282,	-0.251536756
	-0.0916542912,	-0.247231459
	-0.227340337,	-0.114221088
	-0.235796818,	 0.145416676
	-0.0747427163,	 0.290349793
	 0.166565652,	 0.258438879
	 0.28308746,	 0.047937819
END
BEGIN
	 0.0145492111,	 0.0629481666
	 0.0504508451,	 0.0268485458
	 0.0163571552,	-0.047638601
	-0.0414687377,	-0.0258623523
	-0.032845435,	 0.0357039563
	 0.0411433263,	-0.0212028937
	-0.0116662035,	-0.0433719972
	-0.0452016762,	 0.000816551872
	 0.0094430727,	 0.0482977479
	 0.0526858865,	 0.0109121631
	 0.0325780258,	-0.0498145102
	-0.0402077797,	-0.0532933091
END
BEGIN
	 0.0150887725,	 0.0631142159
	 0.0508232738,	 0.0267747748
	 0.0160559061,	-0.0473817088
	-0.0414995175,	-0.0248116854
	-0.0318880215,	 0.0367061918
	 0.0412874501,	-0.0215780062
	-0.0119487933,	-0.0429188356
	-0.0447660808,	 0.00173351255
	 0.01037354,	 0.0481256266
	 0.0526384278,	 0.0102082202
	 0.031428155,	-0.0496069964
	-0.0408184464,	-0.0512599753
END
BEGIN
	 0.191522472,	-0.420624085
	-0.110596804,	-0.441542787
	-0.422301062,	-0.0203845517
	-0.258409769,	 0.294636569
	 0.0568571952,	 0.360741101
	 0.256631304,	-0.115175987
	 0.0399288621,	-0.211240058
	-0.114005354,	-0.0978191409
	-0.0348703542,	 0.091061289
	 0.107419133,	 0.0527826057
	 0.130242872,	-0.109561765
	-0.0106535971,	-0.218957166
END
BEGIN
	-0.208770143,	-0.0163466577
	-0.162823448,	 0.110689116
	 0.0604251199,	 0.150119715
	 0.12142959,	 0.0249676236
	 0.0670384482,	-0.0463840889
	 0.0083330389,	-0.085939525
	-0.0811629411,	-0.080010683
	-0.126620269,	 0.0281544833
	 0.00133564825,	 0.128297584
	 0.08592353,	 0.0694768092
	 0.080265398,	-0.0034115508
	 0.0623585615,	-0.0144272384
END
BEGIN
	 0.0474113008,	-0.791762221
	-0.271590696,	-0.766560487
	-0.776345902,	-0.354879003
	-0.860072749,	 0.156072644
	-0.625283076,	 0.622002784
	 0.34623933,	 0.836722614
	 0.77694578,	 0.503636936
	 0.937635471,	-0.037497365
	 0.607623582,	-0.713786591
	 0.145263955,	-0.917126915
	-0.349152036,	-0.850608255
	-0.741121631,	-0.535446321
END
BEGIN
	-0.0120080445,	 0.0637131457
	 0.0314361606,	 0.0480885641
	 0.0432883689,	-0.0270473228
	-0.00961055186,	-0.0488856849
	-0.0491057613,	-0.00638101202
	 0.0347149877,	 0.0320631786
	 0.0407518653,	-0.0210025158
	-0.00435987609,	-0.0455874427
	-0.0488616304,	 0.00502464634
	-0.020837415,	 0.0493221107
	 0.0378388993,	 0.0460464927
	 0.0657834869,	-0.0150183588
END
BEGIN
	-0.0119818098,	 0.0636623503
	 0.0314863754,	 0.0480186311
	 0.0432730939,	-0.0272212843
	-0.00975390527,	-0.0490736641
	-0.0493999389,	-0.00648818376
	 0.0345210787,	 0.0323532995
	 0.0407819611,	-0.0207786145
	-0.0043043183,	-0.0456213478
	-0.0492589862,	 0.00486372343
	-0.0215708368,	 0.0495736551
	 0.037231183,	 0.0469684875
	 0.0658536368,	-0.0137382517
END
BEGIN
	 0.557249144,	-0.254605599
	 0.499571311,	-0.449625308
	 0.127839264,	-0.678023154
	-0.167644542,	-0.566870751
	-0.234117679,	-0.346313193
	-0.192727513,	-0.42250366
	-0.441462618,	-0.429884449
	-0.659008123,	-0.199720161
	-0.598215364,	 0.231127948
	-0.371036019,	 0.363475396
	-0.184346441,	 0.2991394
	-0.184792948,	 0.174138211
END
BEGIN
	 0.0243140613,	-0.279359875
	-0.075210412,	-0.28453498
	-0.277422666,	-0.181367008
	-0.361765293,	 0.00687261151
	-0.304831901,	 0.234012344
	 0.135478939,	 0.351130392
	 0.292238188,	 0.205104715
	 0.343420906,	 0.0201353856
	 0.270585847,	-0.213632102
	 0.136472661,	-0.326043562
	-0.0490193489,	-0.359524428
	-0.235688513,	-0.283794177
END
BEGIN
	 0.0225888684,	-0.279276003
	-0.0772733019,	-0.283692446
	-0.278917797,	-0.178200512
	-0.360975191,	 0.011459118
	-0.300567679,	 0.23799105
	 0.141790635,	 0.347167939
	 0.295340796,	 0.197884136
	 0.342117947,	 0.0119728356
	 0.263571437,	-0.219432895
	 0.126779255,	-0.328103477
	-0.0595276527,	-0.356479971
	-0.244320428,	-0.275057649
END
BEGIN
	-0.208770143,	-0.0163466577
	-0.162823448,	 0.110689116
	 0.0604251199,	 0.150119715
	 0.12142959,	 0.0249676236
	 0.0670384482,	-0.0463840889
	 0.0083330389,	-0.085939525
	-0.0811629411,	-0.080010683
	-0.126620269,	 0.0281544833
	 0.00133564825,	 0.128297584
	 0.08592353,	 0.0694768092
	 0.080265398,	-0.0034115508
	 0.0623585615,	-0.0144272384
END
BEGIN
	-0.163929495,	 0.415286388
	-0.0179779072,	 0.310328172
	 0.0416116321,	-0.0329619259
	-0.163032231,	-0.211603706
	-0.42768035,	-0.137188403
	-0.306042059,	 0.300546032
	-0.0784843453,	 0.244117007
	 0.0120869549,	 0.0423480943
	-0.145197102,	-0.209515279
	-0.370630283,	-0.22972247
	-0.56176417,	-0.069821585
	-0.571211355,	 0.198232394
END
BEGIN
	 0.0859635047,	-0.239530822
	 0.00600690222,	-0.250933357
	-0.134304443,	-0.174661418
	-0.157547795,	-0.0703548526
	-0.112292755,	-0.0101853434
	-0.102840318,	-0.026566652
	-0.131527561,	 0.00988417058
	-0.126386669,	 0.0646248634
	-0.0760480113,	 0.114379307
	-0.033612421,	 0.118345109
	-0.00864533473,	 0.0967494794
	-0.0277778303,	 0.0772245345
END
BEGIN
	 0.13518811,	-0.247204198
	 0.0722337446,	-0.287340924
	-0.101030856,	-0.319499629
	-0.255452874,	-0.263464049
	-0.373562612,	-0.11485386
	-0.288044472,	 0.253799904
	-0.138113834,	 0.337046855
	 0.011859663,	 0.350499178
	 0.194001524,	 0.292071141
	 0.296995851,	 0.201124134
	 0.361326733,	 0.0659625387
	 0.359955023,	-0.0954715252
END
BEGIN
	 0.135662567,	-0.246924406
	 0.0728782913,	-0.287155351
	-0.100052024,	-0.319694165
	-0.254372199,	-0.264258838
	-0.372867394,	-0.116382094
	-0.289189228,	 0.252093791
	-0.139991485,	 0.335967748
	 0.00955722718,	 0.350318853
	 0.191821134,	 0.29340045
	 0.295581727,	 0.203407816
	 0.361254387,	 0.0686910863
	 0.361411645,	-0.0933695393
END
BEGIN
	 0.24921189,	-0.278311572
	 0.176369069,	-0.306406804
	 0.0725432569,	-0.304602322
	 0.0277281659,	-0.320528267
	-0.0595475828,	-0.356773064
	-0.280380133,	-0.220241024
	-0.285387852,	-0.118011602
	-0.269614452,	-0.065711744
	-0.288286056,	-0.0205368054
	-0.316282558,	 0.0393684542
	-0.316211378,	 0.132969638
	-0.258813536,	 0.22126259
END
BEGIN
	-0.0790826695,	-0.00285250877
	-0.0659706919,	 0.0329057914
	-0.00463699359,	 0.0700602903
	 0.0486230791,	 0.0504081779
	 0.0688367191,	-0.00484066219
	-0.0141881869,	-0.0570531693
	-0.0448713321,	-0.026666924
	-0.0472044033,	 0.00873954713
	-0.0227596354,	 0.0430842633
	 0.00721295664,	 0.0532860418
	 0.0448252444,	 0.0433935901
	 0.0745187556,	 0.00343132293
END
BEGIN
	-0.079220926,	-0.00215858859
	-0.0657411499,	 0.0336009471
	-0.00389920687,	 0.0701631816
	 0.049124017,	 0.0498465263
	 0.0685289318,	-0.00560552416
	-0.0150141671,	-0.0560685582
	-0.04470804,	-0.0251021945
	-0.0458569344,	 0.0100467581
	-0.0203979265,	 0.0429280974
	 0.00947569385,	 0.0516916058
	 0.0460909238,	 0.0403443595
	 0.0737000805,	-0.000485407538
END
BEGIN
	 0.0474113008,	-0.791762221
	-0.271590696,	-0.766560487
	-0.776345902,	-0.354879003
	-0.860072749,	 0.156072644
	-0.625283076,	 0.622002784
	 0.34623933,	 0.836722614
	 0.77694578,	 0.503636936
	 0.937635471,	-0.037497365
	 0.607623582,	-0.713786591
	 0.145263955,	-0.917126915
	-0.349152036,	-0.850608255
	-0.741121631,	-0.535446321
END
BEGIN
	 0.0859635047,	-0.239530822
	 0.00600690222,	-0.250933357
	-0.134304443,	-0.174661418
	-0.157547795,	-0.0703548526
	-0.112292755,	-0.0101853434
	-0.102840318,	-0.026566652
	-0.131527561,	 0.00988417058
	-0.126386669,	 0.0646248634
	-0.0760480113,	 0.114379307
	-0.033612421,	 0.118345109
	-0.00864533473,	 0.0967494794
	-0.0277778303,	 0.0772245345
