CITIFILE A.01.01
#Momentum: B.10.20.363 (*) 2012.08 Sep  5 2012 
#Momentum Date and Time: Mon Sep 10 16:32:48 2012

NAME Momentum.SP

#  mode: MW    project: proj    reference: S_50

CONSTANT NBR_OF_PORTS 8

CONSTANT NORMALIZATION 1

VAR freq MAG 12

DATA S[1,1] RI
DATA S[1,2] RI
DATA S[1,3] RI
DATA S[1,4] RI
DATA S[1,5] RI
DATA S[1,6] RI
DATA S[1,7] RI
DATA S[1,8] RI
DATA S[2,1] RI
DATA S[2,2] RI
DATA S[2,3] RI
DATA S[2,4] RI
DATA S[2,5] RI
DATA S[2,6] RI
DATA S[2,7] RI
DATA S[2,8] RI
DATA S[3,1] RI
DATA S[3,2] RI
DATA S[3,3] RI
DATA S[3,4] RI
DATA S[3,5] RI
DATA S[3,6] RI
DATA S[3,7] RI
DATA S[3,8] RI
DATA S[4,1] RI
DATA S[4,2] RI
DATA S[4,3] RI
DATA S[4,4] RI
DATA S[4,5] RI
DATA S[4,6] RI
DATA S[4,7] RI
DATA S[4,8] RI
DATA S[5,1] RI
DATA S[5,2] RI
DATA S[5,3] RI
DATA S[5,4] RI
DATA S[5,5] RI
DATA S[5,6] RI
DATA S[5,7] RI
DATA S[5,8] RI
DATA S[6,1] RI
DATA S[6,2] RI
DATA S[6,3] RI
DATA S[6,4] RI
DATA S[6,5] RI
DATA S[6,6] RI
DATA S[6,7] RI
DATA S[6,8] RI
DATA S[7,1] RI
DATA S[7,2] RI
DATA S[7,3] RI
DATA S[7,4] RI
DATA S[7,5] RI
DATA S[7,6] RI
DATA S[7,7] RI
DATA S[7,8] RI
DATA S[8,1] RI
DATA S[8,2] RI
DATA S[8,3] RI
DATA S[8,4] RI
DATA S[8,5] RI
DATA S[8,6] RI
DATA S[8,7] RI
DATA S[8,8] RI
DATA S_50[1,1] RI
DATA S_50[1,2] RI
DATA S_50[1,3] RI
DATA S_50[1,4] RI
DATA S_50[1,5] RI
DATA S_50[1,6] RI
DATA S_50[1,7] RI
DATA S_50[1,8] RI
DATA S_50[2,1] RI
DATA S_50[2,2] RI
DATA S_50[2,3] RI
DATA S_50[2,4] RI
DATA S_50[2,5] RI
DATA S_50[2,6] RI
DATA S_50[2,7] RI
DATA S_50[2,8] RI
DATA S_50[3,1] RI
DATA S_50[3,2] RI
DATA S_50[3,3] RI
DATA S_50[3,4] RI
DATA S_50[3,5] RI
DATA S_50[3,6] RI
DATA S_50[3,7] RI
DATA S_50[3,8] RI
DATA S_50[4,1] RI
DATA S_50[4,2] RI
DATA S_50[4,3] RI
DATA S_50[4,4] RI
DATA S_50[4,5] RI
DATA S_50[4,6] RI
DATA S_50[4,7] RI
DATA S_50[4,8] RI
DATA S_50[5,1] RI
DATA S_50[5,2] RI
DATA S_50[5,3] RI
DATA S_50[5,4] RI
DATA S_50[5,5] RI
DATA S_50[5,6] RI
DATA S_50[5,7] RI
DATA S_50[5,8] RI
DATA S_50[6,1] RI
DATA S_50[6,2] RI
DATA S_50[6,3] RI
DATA S_50[6,4] RI
DATA S_50[6,5] RI
DATA S_50[6,6] RI
DATA S_50[6,7] RI
DATA S_50[6,8] RI
DATA S_50[7,1] RI
DATA S_50[7,2] RI
DATA S_50[7,3] RI
DATA S_50[7,4] RI
DATA S_50[7,5] RI
DATA S_50[7,6] RI
DATA S_50[7,7] RI
DATA S_50[7,8] RI
DATA S_50[8,1] RI
DATA S_50[8,2] RI
DATA S_50[8,3] RI
DATA S_50[8,4] RI
DATA S_50[8,5] RI
DATA S_50[8,6] RI
DATA S_50[8,7] RI
DATA S_50[8,8] RI
DATA S_Z0[1,1] RI
DATA S_Z0[1,2] RI
DATA S_Z0[1,3] RI
DATA S_Z0[1,4] RI
DATA S_Z0[1,5] RI
DATA S_Z0[1,6] RI
DATA S_Z0[1,7] RI
DATA S_Z0[1,8] RI
DATA S_Z0[2,1] RI
DATA S_Z0[2,2] RI
DATA S_Z0[2,3] RI
DATA S_Z0[2,4] RI
DATA S_Z0[2,5] RI
DATA S_Z0[2,6] RI
DATA S_Z0[2,7] RI
DATA S_Z0[2,8] RI
DATA S_Z0[3,1] RI
DATA S_Z0[3,2] RI
DATA S_Z0[3,3] RI
DATA S_Z0[3,4] RI
DATA S_Z0[3,5] RI
DATA S_Z0[3,6] RI
DATA S_Z0[3,7] RI
DATA S_Z0[3,8] RI
DATA S_Z0[4,1] RI
DATA S_Z0[4,2] RI
DATA S_Z0[4,3] RI
DATA S_Z0[4,4] RI
DATA S_Z0[4,5] RI
DATA S_Z0[4,6] RI
DATA S_Z0[4,7] RI
DATA S_Z0[4,8] RI
DATA S_Z0[5,1] RI
DATA S_Z0[5,2] RI
DATA S_Z0[5,3] RI
DATA S_Z0[5,4] RI
DATA S_Z0[5,5] RI
DATA S_Z0[5,6] RI
DATA S_Z0[5,7] RI
DATA S_Z0[5,8] RI
DATA S_Z0[6,1] RI
DATA S_Z0[6,2] RI
DATA S_Z0[6,3] RI
DATA S_Z0[6,4] RI
DATA S_Z0[6,5] RI
DATA S_Z0[6,6] RI
DATA S_Z0[6,7] RI
DATA S_Z0[6,8] RI
DATA S_Z0[7,1] RI
DATA S_Z0[7,2] RI
DATA S_Z0[7,3] RI
DATA S_Z0[7,4] RI
DATA S_Z0[7,5] RI
DATA S_Z0[7,6] RI
DATA S_Z0[7,7] RI
DATA S_Z0[7,8] RI
DATA S_Z0[8,1] RI
DATA S_Z0[8,2] RI
DATA S_Z0[8,3] RI
DATA S_Z0[8,4] RI
DATA S_Z0[8,5] RI
DATA S_Z0[8,6] RI
DATA S_Z0[8,7] RI
DATA S_Z0[8,8] RI
DATA GAMMA[4] RI
DATA GAMMA[5] RI
DATA GAMMA[6] RI
DATA GAMMA[7] RI
DATA GAMMA[1] RI
DATA Z0[1] RI
DATA Z0[2] RI
DATA Z0[3] RI
DATA Z0[4] RI
DATA Z0[5] RI
DATA Z0[6] RI
DATA Z0[7] RI
DATA Z0[8] RI
DATA PORTZ[1] RI
DATA PORTZ[2] RI
DATA PORTZ[3] RI
DATA PORTZ[4] RI
DATA PORTZ[5] RI
DATA PORTZ[6] RI
DATA PORTZ[7] RI
DATA PORTZ[8] RI

VAR_LIST_BEGIN
	 1000000000
	 1222222222
	 1666666667
	 2000000000
	 2333333333
	 3000000000
	 3333333333
	 3666666667
	 4111111111
	 4407407408
	 4703703704
	 5000000000
VAR_LIST_END

BEGIN
	 0.052284762,	 0.491935947
	 0.146569991,	 0.409468707
	 0.263766401,	 0.327281013
	 0.447841885,	 0.240598322
	 0.593401904,	-0.067989642
	 0.0210029491,	-0.552739415
	-0.239873644,	-0.38515163
	-0.318821389,	-0.221654005
	-0.440822388,	-0.069251673
	-0.528105619,	 0.161201982
	-0.429348313,	 0.491872887
	-0.0827436624,	 0.701094408
END
BEGIN
	-0.128244312,	-0.140195876
	-0.185136792,	-0.0667935611
	-0.17153557,	 0.136384889
	-0.0197267841,	 0.238534442
	 0.179261068,	 0.182466114
	 0.147453398,	-0.20917692
	-0.0538998873,	-0.238736347
	-0.201936663,	-0.122195295
	-0.202889514,	 0.115367829
	-0.076603786,	 0.222394943
	 0.0934400014,	 0.217586732
	 0.216722568,	 0.0955972643
END
BEGIN
	-0.129047553,	-0.139180057
	-0.18546092,	-0.0652286177
	-0.169833407,	 0.138048282
	-0.0166277276,	 0.23838631
	 0.181595546,	 0.179392347
	 0.142904262,	-0.211252905
	-0.0587881526,	-0.236533497
	-0.203831671,	-0.116806189
	-0.198784469,	 0.12019863
	-0.0698263499,	 0.223650358
	 0.100080269,	 0.213950071
	 0.219800514,	 0.0877420697
END
BEGIN
	-0.275442195,	-0.136820757
	-0.276327551,	 0.0287256017
	-0.109264845,	 0.203778852
	 0.0366349984,	 0.229633306
	 0.206425664,	 0.16154237
	 0.12878137,	-0.251536779
	-0.0916543436,	-0.247231535
	-0.227340419,	-0.114221004
	-0.235796711,	 0.145416667
	-0.0747427359,	 0.290349657
	 0.166565488,	 0.258438923
	 0.283087526,	 0.047938001
END
BEGIN
	 0.557249104,	-0.254605457
	 0.49957138,	-0.449625138
	 0.127839577,	-0.678023206
	-0.167644409,	-0.566871188
	-0.234118141,	-0.346313586
	-0.192727403,	-0.422502912
	-0.441461887,	-0.429884228
	-0.659007569,	-0.199720679
	-0.598215835,	 0.231127224
	-0.371036942,	 0.363475346
	-0.184347061,	 0.299140262
	-0.184792526,	 0.174139202
END
BEGIN
	 0.249211931,	-0.278311563
	 0.176369107,	-0.30640683
	 0.0725432133,	-0.304602375
	 0.0277280843,	-0.320528228
	-0.0595475547,	-0.356772959
	-0.280380135,	-0.220241143
	-0.285387966,	-0.11801163
	-0.269614496,	-0.0657116598
	-0.288285969,	-0.0205367611
	-0.316282425,	 0.0393683949
	-0.316211362,	 0.132969449
	-0.258813746,	 0.221262528
END
BEGIN
	-0.0612494707,	-0.180725734
	-0.130501306,	-0.148967295
	-0.221400021,	-0.00303248062
	-0.190280092,	 0.150505683
	-0.0452650578,	 0.25608092
	 0.252793059,	 0.0665699834
	 0.225772884,	-0.10830916
	 0.105277661,	-0.217565578
	-0.100477015,	-0.216736298
	-0.207045152,	-0.12223269
	-0.240683034,	 0.0204401911
	-0.18191436,	 0.157893438
END
BEGIN
	-0.060856847,	-0.180802234
	-0.130115868,	-0.149275559
	-0.221407941,	-0.00373684391
	-0.190876379,	 0.149821075
	-0.0463745294,	 0.255966176
	 0.252535297,	 0.0679104861
	 0.226443773,	-0.107039126
	 0.106650827,	-0.216928932
	-0.0989998417,	-0.2174273
	-0.206201784,	-0.123673764
	-0.240857873,	 0.0188377831
	-0.182886709,	 0.156931549
END
BEGIN
	-0.128244312,	-0.140195876
	-0.185136792,	-0.0667935611
	-0.17153557,	 0.136384889
	-0.0197267841,	 0.238534442
	 0.179261068,	 0.182466114
	 0.147453398,	-0.20917692
	-0.0538998873,	-0.238736347
	-0.201936663,	-0.122195295
	-0.202889514,	 0.115367829
	-0.0766037861,	 0.222394943
	 0.0934400014,	 0.217586732
	 0.216722568,	 0.0955972643
END
BEGIN
	 0.0287305482,	 0.300012893
	 0.0601109813,	 0.238776265
	 0.0700164496,	 0.17703895
	 0.0849823295,	 0.17059827
	 0.125928769,	 0.160429882
	 0.17692557,	 0.0615853623
	 0.157879079,	 0.0271346584
	 0.146646927,	 0.0240592048
	 0.180390566,	 0.0263607073
	 0.227619305,	 0.000636968006
	 0.277352786,	-0.0618420502
	 0.310938525,	-0.170575379
END
BEGIN
	-0.134718032,	-0.188906713
	-0.184213787,	-0.110893731
	-0.190529055,	 0.0503047146
	-0.122945809,	 0.146886152
	-0.0110942283,	 0.186388314
	 0.153392791,	 0.0604172666
	 0.149443135,	-0.0269622574
	 0.113370255,	-0.089715003
	 0.0441461596,	-0.144251931
	-0.0202954611,	-0.166390187
	-0.107114424,	-0.162946053
	-0.208092786,	-0.107323083
END
BEGIN
	 0.0145492149,	 0.0629481247
	 0.0504508115,	 0.0268485246
	 0.0163571547,	-0.0476385565
	-0.041468687,	-0.0258623555
	-0.0328454447,	 0.0357038999
	 0.0411433503,	-0.0212028417
	-0.0116661512,	-0.0433720235
	-0.0452017022,	 0.000816500443
	 0.00944301427,	 0.0482978027
	 0.0526859375,	 0.0109122439
	 0.0325781526,	-0.049814564
	-0.0402078344,	-0.0532934879
END
BEGIN
	 0.0243139899,	-0.279359707
	-0.0752103752,	-0.284534779
	-0.277422386,	-0.181366931
	-0.361764994,	 0.00687239209
	-0.304831899,	 0.234011896
	 0.135478496,	 0.351130544
	 0.292238011,	 0.205105147
	 0.343421062,	 0.0201358097
	 0.270586337,	-0.213631952
	 0.136473255,	-0.326043798
	-0.0490189709,	-0.359525188
	-0.235688861,	-0.283795162
END
BEGIN
	-0.079082621,	-0.00285249131
	-0.0659706445,	 0.0329057721
	-0.00463700831,	 0.0700602309
	 0.0486230091,	 0.0504081642
	 0.0688366747,	-0.00484059573
	-0.0141881152,	-0.0570531848
	-0.0448713124,	-0.0266669903
	-0.047204439,	 0.00873949327
	-0.0227597187,	 0.0430842717
	 0.00721289879,	 0.0532861183
	 0.0448252727,	 0.0433937296
	 0.0745189537,	 0.00343140298
END
BEGIN
	 0.804965718,	-0.162827022
	 0.787115297,	-0.301706802
	 0.667236551,	-0.521932517
	 0.544544803,	-0.628111205
	 0.425671442,	-0.695089995
	 0.202393172,	-0.808126304
	 0.0561130256,	-0.854009408
	-0.115308396,	-0.860684786
	-0.344370947,	-0.787885288
	-0.473788162,	-0.691051054
	-0.571507888,	-0.563274866
	-0.624462672,	-0.409790772
END
BEGIN
	-0.0482702386,	-0.229708091
	-0.109109647,	-0.189326447
	-0.182890253,	-0.0855555572
	-0.196881686,	 0.00697020027
	-0.165667382,	 0.0973158836
	-0.0101092939,	 0.167810581
	 0.0542904371,	 0.143748192
	 0.0960878715,	 0.108824059
	 0.137754869,	 0.0599206314
	 0.165419484,	 0.0169350311
	 0.187122021,	-0.0474119404
	 0.184402725,	-0.140321101
END
BEGIN
	-0.129047553,	-0.139180057
	-0.18546092,	-0.0652286177
	-0.169833407,	 0.138048282
	-0.0166277276,	 0.23838631
	 0.181595546,	 0.179392347
	 0.142904262,	-0.211252905
	-0.0587881526,	-0.236533497
	-0.203831671,	-0.116806189
	-0.198784469,	 0.12019863
	-0.0698263499,	 0.223650358
	 0.100080269,	 0.213950071
	 0.219800514,	 0.0877420697
END
BEGIN
	-0.134718032,	-0.188906713
	-0.184213787,	-0.110893731
	-0.190529055,	 0.0503047146
	-0.122945809,	 0.146886152
	-0.0110942283,	 0.186388314
	 0.153392791,	 0.0604172666
	 0.149443135,	-0.0269622574
	 0.113370255,	-0.089715003
	 0.0441461596,	-0.144251931
	-0.020295461,	-0.166390187
	-0.107114424,	-0.162946053
	-0.208092786,	-0.107323083
END
BEGIN
	 0.030489839,	 0.298348302
	 0.0610071793,	 0.236834006
	 0.0696740122,	 0.175809423
	 0.0846157209,	 0.170102232
	 0.125767239,	 0.160117421
	 0.175991676,	 0.0625419621
	 0.158022121,	 0.0299623508
	 0.14982166,	 0.0277265099
	 0.188568982,	 0.027018115
	 0.23764909,	-0.0037127796
	 0.286218314,	-0.0730247377
	 0.313702431,	-0.188886932
END
BEGIN
	 0.0150887674,	 0.0631142597
	 0.0508232988,	 0.0267747969
	 0.0160559188,	-0.0473817299
	-0.0414995292,	-0.024811704
	-0.0318880485,	 0.0367061994
	 0.041287485,	-0.0215780128
	-0.0119488015,	-0.0429188661
	-0.0447661037,	 0.00173352472
	 0.010373547,	 0.0481256235
	 0.0526384045,	 0.010208207
	 0.0314281307,	-0.0496069366
	-0.0408183375,	-0.0512599261
END
BEGIN
	 0.022588949,	-0.279276177
	-0.077273306,	-0.283692618
	-0.278917912,	-0.178200625
	-0.360975339,	 0.0114590535
	-0.300567898,	 0.237991077
	 0.141790656,	 0.347168227
	 0.295341008,	 0.197884282
	 0.342118115,	 0.0119727761
	 0.263571351,	-0.219432956
	 0.126779144,	-0.328103336
	-0.0595275185,	-0.35647958
	-0.244319811,	-0.275057393
END
BEGIN
	-0.0792209761,	-0.00215860882
	-0.0657411918,	 0.0336009569
	-0.00389921544,	 0.0701632148
	 0.049124028,	 0.0498465556
	 0.0685289673,	-0.00560550694
	-0.0150141646,	-0.0560686036
	-0.0447080735,	-0.0251022146
	-0.0458569549,	 0.0100467699
	-0.0203979233,	 0.0429280993
	 0.00947569808,	 0.0516915774
	 0.0460908602,	 0.0403443179
	 0.0736999601,	-0.000485349905
END
BEGIN
	-0.0501139469,	-0.229212271
	-0.110940575,	-0.188125824
	-0.183910764,	-0.0829298873
	-0.196498171,	 0.010281895
	-0.163447712,	 0.10039258
	-0.00593769821,	 0.167610958
	 0.0580244364,	 0.141828969
	 0.0989374026,	 0.105582599
	 0.138999129,	 0.0551988286
	 0.16505024,	 0.0112944319
	 0.184331331,	-0.0536695503
	 0.178081487,	-0.146240458
END
BEGIN
	 0.80538914,	-0.164075191
	 0.787195067,	-0.303270122
	 0.666542783,	-0.523788723
	 0.543315757,	-0.630005019
	 0.423941945,	-0.697005709
	 0.198992486,	-0.80996712
	 0.0515214509,	-0.855058919
	-0.120742846,	-0.860194705
	-0.349652508,	-0.784615765
	-0.477855859,	-0.685907704
	-0.573288965,	-0.556704739
	-0.622748849,	-0.403000657
END
BEGIN
	-0.275442195,	-0.136820757
	-0.276327551,	 0.0287256017
	-0.109264845,	 0.203778852
	 0.0366349984,	 0.229633306
	 0.206425664,	 0.16154237
	 0.12878137,	-0.251536779
	-0.0916543436,	-0.247231535
	-0.227340419,	-0.114221004
	-0.235796711,	 0.145416667
	-0.0747427359,	 0.290349657
	 0.166565488,	 0.258438923
	 0.283087526,	 0.047938001
END
BEGIN
	 0.0145492149,	 0.0629481247
	 0.0504508115,	 0.0268485246
	 0.0163571547,	-0.0476385565
	-0.041468687,	-0.0258623555
	-0.0328454447,	 0.0357038999
	 0.0411433503,	-0.0212028417
	-0.0116661512,	-0.0433720235
	-0.0452017022,	 0.000816500444
	 0.00944301427,	 0.0482978027
	 0.0526859375,	 0.0109122439
	 0.0325781526,	-0.049814564
	-0.0402078344,	-0.0532934879
END
BEGIN
	 0.0150887674,	 0.0631142597
	 0.0508232988,	 0.0267747969
	 0.0160559188,	-0.0473817299
	-0.0414995292,	-0.024811704
	-0.0318880485,	 0.0367061994
	 0.041287485,	-0.0215780128
	-0.0119488015,	-0.0429188661
	-0.0447661037,	 0.00173352472
	 0.010373547,	 0.0481256235
	 0.0526384045,	 0.010208207
	 0.0314281307,	-0.0496069366
	-0.0408183375,	-0.0512599261
END
BEGIN
	 0.191522465,	-0.420624075
	-0.110596796,	-0.441542782
	-0.422301074,	-0.0203845577
	-0.258409768,	 0.294636582
	 0.0568572108,	 0.360741086
	 0.256631334,	-0.115175964
	 0.0399288693,	-0.211240077
	-0.11400535,	-0.0978190466
	-0.0348703127,	 0.0910612904
	 0.107419067,	 0.0527826117
	 0.130242837,	-0.109561724
	-0.010653568,	-0.218957252
END
BEGIN
	-0.208770107,	-0.0163466928
	-0.162823461,	 0.110689064
	 0.0604250645,	 0.150119764
	 0.121429657,	 0.0249676903
	 0.0670385197,	-0.0463841794
	 0.00833299245,	-0.0859393957
	-0.0811628046,	-0.0800106448
	-0.126620233,	 0.0281543518
	 0.00133546031,	 0.128297624
	 0.085923544,	 0.069477015
	 0.0802656595,	-0.00341154251
	 0.0623585897,	-0.0144275361
END
BEGIN
	 0.0474112905,	-0.791762231
	-0.271590709,	-0.766560481
	-0.776345887,	-0.354878995
	-0.860072747,	 0.156072629
	-0.62528309,	 0.622002796
	 0.346239327,	 0.836722598
	 0.776945744,	 0.503636928
	 0.937635486,	-0.0374973958
	 0.607623589,	-0.713786611
	 0.14526395,	-0.917126941
	-0.349152076,	-0.850608241
	-0.741121582,	-0.535446278
END
BEGIN
	-0.0120080246,	 0.0637131085
	 0.0314361408,	 0.0480885294
	 0.0432883405,	-0.0270472876
	-0.00961051384,	-0.0488856497
	-0.0491057203,	-0.00638105402
	 0.0347149484,	 0.0320632234
	 0.0407519026,	-0.0210024703
	-0.00435982466,	-0.0455874758
	-0.0488616818,	 0.00502458226
	-0.0208375064,	 0.0493221459
	 0.0378389119,	 0.0460466309
	 0.0657836739,	-0.0150183339
END
BEGIN
	-0.0119818389,	 0.0636623872
	 0.0314863805,	 0.0480186668
	 0.0432731213,	-0.0272212845
	-0.0097538895,	-0.0490736875
	-0.0493999586,	-0.00648821343
	 0.034521085,	 0.0323533406
	 0.0407819943,	-0.0207786158
	-0.00430431405,	-0.0456213701
	-0.0492589847,	 0.00486370876
	-0.0215708407,	 0.0495736211
	 0.0372311066,	 0.0469684671
	 0.0658535493,	-0.0137381365
END
BEGIN
	 0.557249104,	-0.254605457
	 0.49957138,	-0.449625138
	 0.127839577,	-0.678023206
	-0.167644409,	-0.566871188
	-0.234118141,	-0.346313586
	-0.192727403,	-0.422502912
	-0.441461887,	-0.429884228
	-0.659007569,	-0.199720679
	-0.598215835,	 0.231127224
	-0.371036942,	 0.363475346
	-0.184347061,	 0.299140262
	-0.184792526,	 0.174139202
END
BEGIN
	 0.0243139899,	-0.279359707
	-0.0752103752,	-0.284534779
	-0.277422386,	-0.181366931
	-0.361764994,	 0.0068723921
	-0.304831899,	 0.234011896
	 0.135478496,	 0.351130544
	 0.292238011,	 0.205105147
	 0.343421062,	 0.0201358097
	 0.270586337,	-0.213631952
	 0.136473255,	-0.326043798
	-0.0490189709,	-0.359525188
	-0.235688861,	-0.283795162
END
BEGIN
	 0.022588949,	-0.279276177
	-0.077273306,	-0.283692618
	-0.278917912,	-0.178200625
	-0.360975339,	 0.0114590535
	-0.300567898,	 0.237991077
	 0.141790656,	 0.347168227
	 0.295341008,	 0.197884282
	 0.342118115,	 0.0119727761
	 0.263571351,	-0.219432956
	 0.126779144,	-0.328103336
	-0.0595275185,	-0.35647958
	-0.244319811,	-0.275057393
END
BEGIN
	-0.208770107,	-0.0163466928
	-0.162823461,	 0.110689064
	 0.0604250645,	 0.150119764
	 0.121429657,	 0.0249676903
	 0.0670385197,	-0.0463841794
	 0.00833299245,	-0.0859393957
	-0.0811628046,	-0.0800106448
	-0.126620233,	 0.0281543518
	 0.00133546031,	 0.128297624
	 0.085923544,	 0.069477015
	 0.0802656595,	-0.00341154251
	 0.0623585897,	-0.0144275361
END
BEGIN
	-0.16392969,	 0.415286486
	-0.0179780588,	 0.310328402
	 0.0416118555,	-0.0329615005
	-0.163031554,	-0.211603572
	-0.42767968,	-0.13718902
	-0.306043061,	 0.300545553
	-0.0784853482,	 0.244117482
	 0.0120865817,	 0.0423491487
	-0.145196339,	-0.209514344
	-0.370628913,	-0.229722308
	-0.561762914,	-0.0698225997
	-0.571211262,	 0.198230727
END
BEGIN
	 0.0859635355,	-0.239530769
	 0.00600696601,	-0.250933332
	-0.134304389,	-0.174661503
	-0.157547866,	-0.0703549644
	-0.112292916,	-0.0101853159
	-0.10284017,	-0.0265665595
	-0.131527423,	 0.00988408753
	-0.126386655,	 0.064624702
	-0.0760481946,	 0.114379223
	-0.0336126098,	 0.118345195
	-0.00864539213,	 0.0967497458
	-0.0277775902,	 0.0772247771
END
BEGIN
	 0.135187978,	-0.247204071
	 0.072233682,	-0.287340728
	-0.101030682,	-0.319499392
	-0.255452501,	-0.263463982
	-0.373562239,	-0.114854128
	-0.288044803,	 0.253799547
	-0.138114296,	 0.337046777
	 0.0118592337,	 0.350499389
	 0.194001332,	 0.29207163
	 0.29699597,	 0.201124778
	 0.361327347,	 0.0659631353
	 0.359956072,	-0.0954714315
END
BEGIN
	 0.135662737,	-0.246924519
	 0.0728784085,	-0.287155495
	-0.100051984,	-0.319694339
	-0.254372199,	-0.264259045
	-0.37286751,	-0.116382349
	-0.289189566,	 0.252093805
	-0.139991681,	 0.335967934
	 0.00955716109,	 0.35031901
	 0.19182107,	 0.293400449
	 0.295581492,	 0.203407804
	 0.361253932,	 0.0686913007
	 0.361411178,	-0.0933688817
END
BEGIN
	 0.249211931,	-0.278311563
	 0.176369107,	-0.30640683
	 0.0725432133,	-0.304602375
	 0.0277280843,	-0.320528228
	-0.0595475547,	-0.356772959
	-0.280380135,	-0.220241143
	-0.285387966,	-0.11801163
	-0.269614496,	-0.0657116598
	-0.288285969,	-0.0205367611
	-0.316282425,	 0.0393683949
	-0.316211362,	 0.132969449
	-0.258813746,	 0.221262528
END
BEGIN
	-0.079082621,	-0.00285249131
	-0.0659706445,	 0.0329057721
	-0.00463700831,	 0.0700602309
	 0.0486230091,	 0.0504081642
	 0.0688366747,	-0.00484059573
	-0.0141881152,	-0.0570531848
	-0.0448713124,	-0.0266669903
	-0.047204439,	 0.00873949327
	-0.0227597187,	 0.0430842717
	 0.0072128988,	 0.0532861183
	 0.0448252727,	 0.0433937296
	 0.0745189537,	 0.00343140298
END
BEGIN
	-0.0792209761,	-0.00215860882
	-0.0657411918,	 0.0336009569
	-0.00389921544,	 0.0701632148
	 0.049124028,	 0.0498465556
	 0.0685289673,	-0.00560550694
	-0.0150141646,	-0.0560686036
	-0.0447080735,	-0.0251022146
	-0.0458569549,	 0.0100467699
	-0.0203979233,	 0.0429280993
	 0.00947569808,	 0.0516915774
	 0.0460908602,	 0.0403443179
	 0.0736999601,	-0.000485349905
END
BEGIN
	 0.0474112905,	-0.791762231
	-0.271590709,	-0.766560481
	-0.776345887,	-0.354878995
	-0.860072747,	 0.156072629
	-0.62528309,	 0.622002796
	 0.346239327,	 0.836722598
	 0.776945744,	 0.503636928
	 0.937635486,	-0.0374973958
	 0.607623589,	-0.713786611
	 0.14526395,	-0.917126941
	-0.349152076,	-0.850608241
	-0.741121582,	-0.535446278
END
BEGIN
	 0.0859635355,	-0.239530769
	 0.00600696601,	-0.250933332
	-0.134304389,	-0.174661503
	-0.157547866,	-0.0703549644
	-0.112292916,	-0.0101853159
	-0.10284017,	-0.0265665595
	-0.131527423,	 0.00988408753
	-0.126386655,	 0.064624702
	-0.0760481946,	 0.114379223
	-0.0336126098,	 0.118345195
	-0.00864539213,	 0.0967497458
