CITIFILE A.01.01
#Momentum: B.10.20.363 (*) 2012.08 Sep  5 2012 
#Momentum Date and Time: Mon Sep 10 16:00:34 2012

NAME Momentum.SP

#  mode: MW    project: proj    reference: S_50

CONSTANT NBR_OF_PORTS 8

CONSTANT NORMALIZATION 1

VAR freq MAG 12

DATA S[1,1] RI
DATA S[1,2] RI
DATA S[1,3] RI
DATA S[1,4] RI
DATA S[1,5] RI
DATA S[1,6] RI
DATA S[1,7] RI
DATA S[1,8] RI
DATA S[2,1] RI
DATA S[2,2] RI
DATA S[2,3] RI
DATA S[2,4] RI
DATA S[2,5] RI
DATA S[2,6] RI
DATA S[2,7] RI
DATA S[2,8] RI
DATA S[3,1] RI
DATA S[3,2] RI
DATA S[3,3] RI
DATA S[3,4] RI
DATA S[3,5] RI
DATA S[3,6] RI
DATA S[3,7] RI
DATA S[3,8] RI
DATA S[4,1] RI
DATA S[4,2] RI
DATA S[4,3] RI
DATA S[4,4] RI
DATA S[4,5] RI
DATA S[4,6] RI
DATA S[4,7] RI
DATA S[4,8] RI
DATA S[5,1] RI
DATA S[5,2] RI
DATA S[5,3] RI
DATA S[5,4] RI
DATA S[5,5] RI
DATA S[5,6] RI
DATA S[5,7] RI
DATA S[5,8] RI
DATA S[6,1] RI
DATA S[6,2] RI
DATA S[6,3] RI
DATA S[6,4] RI
DATA S[6,5] RI
DATA S[6,6] RI
DATA S[6,7] RI
DATA S[6,8] RI
DATA S[7,1] RI
DATA S[7,2] RI
DATA S[7,3] RI
DATA S[7,4] RI
DATA S[7,5] RI
DATA S[7,6] RI
DATA S[7,7] RI
DATA S[7,8] RI
DATA S[8,1] RI
DATA S[8,2] RI
DATA S[8,3] RI
DATA S[8,4] RI
DATA S[8,5] RI
DATA S[8,6] RI
DATA S[8,7] RI
DATA S[8,8] RI
DATA S_50[1,1] RI
DATA S_50[1,2] RI
DATA S_50[1,3] RI
DATA S_50[1,4] RI
DATA S_50[1,5] RI
DATA S_50[1,6] RI
DATA S_50[1,7] RI
DATA S_50[1,8] RI
DATA S_50[2,1] RI
DATA S_50[2,2] RI
DATA S_50[2,3] RI
DATA S_50[2,4] RI
DATA S_50[2,5] RI
DATA S_50[2,6] RI
DATA S_50[2,7] RI
DATA S_50[2,8] RI
DATA S_50[3,1] RI
DATA S_50[3,2] RI
DATA S_50[3,3] RI
DATA S_50[3,4] RI
DATA S_50[3,5] RI
DATA S_50[3,6] RI
DATA S_50[3,7] RI
DATA S_50[3,8] RI
DATA S_50[4,1] RI
DATA S_50[4,2] RI
DATA S_50[4,3] RI
DATA S_50[4,4] RI
DATA S_50[4,5] RI
DATA S_50[4,6] RI
DATA S_50[4,7] RI
DATA S_50[4,8] RI
DATA S_50[5,1] RI
DATA S_50[5,2] RI
DATA S_50[5,3] RI
DATA S_50[5,4] RI
DATA S_50[5,5] RI
DATA S_50[5,6] RI
DATA S_50[5,7] RI
DATA S_50[5,8] RI
DATA S_50[6,1] RI
DATA S_50[6,2] RI
DATA S_50[6,3] RI
DATA S_50[6,4] RI
DATA S_50[6,5] RI
DATA S_50[6,6] RI
DATA S_50[6,7] RI
DATA S_50[6,8] RI
DATA S_50[7,1] RI
DATA S_50[7,2] RI
DATA S_50[7,3] RI
DATA S_50[7,4] RI
DATA S_50[7,5] RI
DATA S_50[7,6] RI
DATA S_50[7,7] RI
DATA S_50[7,8] RI
DATA S_50[8,1] RI
DATA S_50[8,2] RI
DATA S_50[8,3] RI
DATA S_50[8,4] RI
DATA S_50[8,5] RI
DATA S_50[8,6] RI
DATA S_50[8,7] RI
DATA S_50[8,8] RI
DATA S_Z0[1,1] RI
DATA S_Z0[1,2] RI
DATA S_Z0[1,3] RI
DATA S_Z0[1,4] RI
DATA S_Z0[1,5] RI
DATA S_Z0[1,6] RI
DATA S_Z0[1,7] RI
DATA S_Z0[1,8] RI
DATA S_Z0[2,1] RI
DATA S_Z0[2,2] RI
DATA S_Z0[2,3] RI
DATA S_Z0[2,4] RI
DATA S_Z0[2,5] RI
DATA S_Z0[2,6] RI
DATA S_Z0[2,7] RI
DATA S_Z0[2,8] RI
DATA S_Z0[3,1] RI
DATA S_Z0[3,2] RI
DATA S_Z0[3,3] RI
DATA S_Z0[3,4] RI
DATA S_Z0[3,5] RI
DATA S_Z0[3,6] RI
DATA S_Z0[3,7] RI
DATA S_Z0[3,8] RI
DATA S_Z0[4,1] RI
DATA S_Z0[4,2] RI
DATA S_Z0[4,3] RI
DATA S_Z0[4,4] RI
DATA S_Z0[4,5] RI
DATA S_Z0[4,6] RI
DATA S_Z0[4,7] RI
DATA S_Z0[4,8] RI
DATA S_Z0[5,1] RI
DATA S_Z0[5,2] RI
DATA S_Z0[5,3] RI
DATA S_Z0[5,4] RI
DATA S_Z0[5,5] RI
DATA S_Z0[5,6] RI
DATA S_Z0[5,7] RI
DATA S_Z0[5,8] RI
DATA S_Z0[6,1] RI
DATA S_Z0[6,2] RI
DATA S_Z0[6,3] RI
DATA S_Z0[6,4] RI
DATA S_Z0[6,5] RI
DATA S_Z0[6,6] RI
DATA S_Z0[6,7] RI
DATA S_Z0[6,8] RI
DATA S_Z0[7,1] RI
DATA S_Z0[7,2] RI
DATA S_Z0[7,3] RI
DATA S_Z0[7,4] RI
DATA S_Z0[7,5] RI
DATA S_Z0[7,6] RI
DATA S_Z0[7,7] RI
DATA S_Z0[7,8] RI
DATA S_Z0[8,1] RI
DATA S_Z0[8,2] RI
DATA S_Z0[8,3] RI
DATA S_Z0[8,4] RI
DATA S_Z0[8,5] RI
DATA S_Z0[8,6] RI
DATA S_Z0[8,7] RI
DATA S_Z0[8,8] RI
DATA GAMMA[1] RI
DATA GAMMA[4] RI
DATA GAMMA[5] RI
DATA GAMMA[6] RI
DATA GAMMA[7] RI
DATA Z0[1] RI
DATA Z0[2] RI
DATA Z0[3] RI
DATA Z0[4] RI
DATA Z0[5] RI
DATA Z0[6] RI
DATA Z0[7] RI
DATA Z0[8] RI
DATA PORTZ[1] RI
DATA PORTZ[2] RI
DATA PORTZ[3] RI
DATA PORTZ[4] RI
DATA PORTZ[5] RI
DATA PORTZ[6] RI
DATA PORTZ[7] RI
DATA PORTZ[8] RI

VAR_LIST_BEGIN
	 1000000000
	 1222222222
	 1666666667
	 2000000000
	 2333333333
	 3000000000
	 3333333333
	 3666666667
	 4111111111
	 4407407408
	 4703703704
	 5000000000
VAR_LIST_END

BEGIN
	 0.0522846097,	 0.491935695
	 0.146569621,	 0.409468605
	 0.263766266,	 0.327281638
	 0.447842698,	 0.240598727
	 0.59340262,	-0.0679906071
	 0.0210017576,	-0.552738489
	-0.239872992,	-0.385150278
	-0.318819897,	-0.221654273
	-0.440822901,	-0.0692531683
	-0.528107342,	 0.161201788
	-0.429349191,	 0.491874501
	-0.082742411,	 0.701095854
END
BEGIN
	-0.12824428,	-0.140195728
	-0.185136709,	-0.0667934445
	-0.171535409,	 0.136384961
	-0.0197264918,	 0.238534392
	 0.179261291,	 0.182465697
	 0.147452692,	-0.209176822
	-0.0539001385,	-0.238735703
	-0.201936317,	-0.122194799
	-0.202889026,	 0.115367752
	-0.0766034738,	 0.222394624
	 0.0934400856,	 0.217586323
	 0.216722436,	 0.0955968546
END
BEGIN
	-0.129047603,	-0.139180167
	-0.185461072,	-0.0652286812
	-0.169833553,	 0.138048542
	-0.0166274636,	 0.238386661
	 0.181596098,	 0.179392178
	 0.142903636,	-0.21125321
	-0.058788681,	-0.236533134
	-0.203831677,	-0.116805597
	-0.198783939,	 0.120198926
	-0.0698256749,	 0.223650247
	 0.100080747,	 0.213949402
	 0.21980028,	 0.0877410707
END
BEGIN
	-0.275442192,	-0.136820657
	-0.276327449,	 0.0287256473
	-0.109264898,	 0.203778714
	 0.0366348468,	 0.229633416
	 0.206425853,	 0.161542498
	 0.128781104,	-0.251536731
	-0.0916542178,	-0.247231296
	-0.227340191,	-0.114221202
	-0.235797031,	 0.145416649
	-0.074742726,	 0.290350045
	 0.166565937,	 0.258438879
	 0.28308741,	 0.0479374806
END
BEGIN
	 0.557249225,	-0.254605873
	 0.499571191,	-0.44962568
	 0.127838615,	-0.678023103
	-0.167644895,	-0.566869902
	-0.234116833,	-0.34631234
	-0.192727559,	-0.422505121
	-0.441463917,	-0.429885052
	-0.6590093,	-0.199719378
	-0.598214811,	 0.231129358
	-0.371034388,	 0.363475804
	-0.184345121,	 0.299138245
	-0.184793276,	 0.174136339
END
BEGIN
	 0.249211812,	-0.278311591
	 0.176368985,	-0.306406755
	 0.0725433324,	-0.304602208
	 0.0277283288,	-0.320528329
	-0.0595476293,	-0.356773273
	-0.280380153,	-0.220240796
	-0.285387648,	-0.118011529
	-0.269614316,	-0.0657119005
	-0.288286217,	-0.0205369612
	-0.316282804,	 0.0393685214
	-0.316211409,	 0.132969931
	-0.258813209,	 0.221262804
END
BEGIN
	-0.0612495232,	-0.180725577
	-0.130501311,	-0.148967132
	-0.221399943,	-0.00303227584
	-0.190279816,	 0.150505912
	-0.045264508,	 0.256080873
	 0.252792716,	 0.0665692441
	 0.22577214,	-0.108309367
	 0.105277082,	-0.21756523
	-0.100477095,	-0.216735749
	-0.207044973,	-0.122232202
	-0.240682665,	 0.0204405547
	-0.181913831,	 0.157893624
END
BEGIN
	-0.0608568687,	-0.180802349
	-0.13011599,	-0.14927567
	-0.221408228,	-0.00373669369
	-0.19087643,	 0.149821557
	-0.0463740019,	 0.255966554
	 0.252535413,	 0.0679096943
	 0.226443259,	-0.107039677
	 0.106650138,	-0.216928953
	-0.099000306,	-0.217426748
	-0.206201902,	-0.123672969
	-0.240857395,	 0.0188386186
	-0.182885614,	 0.156931904
END
BEGIN
	-0.12824428,	-0.140195728
	-0.185136709,	-0.0667934445
	-0.171535409,	 0.136384961
	-0.0197264918,	 0.238534392
	 0.179261291,	 0.182465697
	 0.147452692,	-0.209176822
	-0.0539001384,	-0.238735703
	-0.201936317,	-0.122194799
	-0.202889026,	 0.115367752
	-0.0766034738,	 0.222394624
	 0.0934400856,	 0.217586323
	 0.216722436,	 0.0955968546
END
BEGIN
	 0.0287308778,	 0.300012678
	 0.0601112949,	 0.238776149
	 0.0700169965,	 0.177038904
	 0.0849831445,	 0.170598028
	 0.125929713,	 0.160429193
	 0.176925733,	 0.0615837914
	 0.157878796,	 0.0271329347
	 0.146646079,	 0.0240574437
	 0.180388767,	 0.0263592181
	 0.227616892,	 0.00063609197
	 0.277350124,	-0.061842028
	 0.310936169,	-0.170574546
END
BEGIN
	-0.134717929,	-0.188906245
	-0.184213504,	-0.110893401
	-0.190528707,	 0.0503047323
	-0.122945503,	 0.146886022
	-0.0110939963,	 0.186388002
	 0.153392445,	 0.0604169526
	 0.149442716,	-0.0269622365
	 0.11337001,	-0.0897147514
	 0.0441462179,	-0.144251723
	-0.0202953673,	-0.166390191
	-0.107114558,	-0.162946266
	-0.208093534,	-0.107323129
END
BEGIN
	 0.0145492302,	 0.0629480757
	 0.0504507926,	 0.0268484875
	 0.0163571145,	-0.0476385505
	-0.0414687057,	-0.0258622976
	-0.0328453637,	 0.0357039388
	 0.0411432294,	-0.0212028854
	-0.0116661942,	-0.0433719052
	-0.0452015959,	 0.000816542967
	 0.00944303643,	 0.0482977028
	 0.0526858572,	 0.0109121853
	 0.0325780579,	-0.0498145218
	-0.040207855,	-0.0532933673
END
BEGIN
	 0.0243138607,	-0.279359525
	-0.0752104478,	-0.284534578
	-0.277422412,	-0.181366666
	-0.361764874,	 0.00687282462
	-0.304831317,	 0.234012306
	 0.135478954,	 0.351129604
	 0.292237652,	 0.205104207
	 0.343420288,	 0.0201353991
	 0.270585676,	-0.213631733
	 0.136472761,	-0.32604335
	-0.0490192565,	-0.359524619
	-0.235688953,	-0.283794501
END
BEGIN
	-0.0790825681,	-0.00285245732
	-0.0659705916,	 0.0329057796
	-0.00463695665,	 0.0700602079
	 0.0486230544,	 0.05040809
	 0.0688366272,	-0.00484071441
	-0.0141882036,	-0.0570530466
	-0.0448712461,	-0.0266668557
	-0.0472043187,	 0.00873952053
	-0.0227596349,	 0.0430842055
	 0.00721292554,	 0.0532860214
	 0.0448252501,	 0.0433936224
	 0.0745188666,	 0.00343129847
END
BEGIN
	 0.804966138,	-0.162827083
	 0.78711566,	-0.301706748
	 0.66723705,	-0.521932186
	 0.544545588,	-0.628110761
	 0.42567262,	-0.695089617
	 0.202394822,	-0.808126663
	 0.0561147084,	-0.854010089
	-0.115306634,	-0.860685813
	-0.344369237,	-0.787887
	-0.473786739,	-0.691053284
	-0.571506947,	-0.563277448
	-0.62446226,	-0.409793317
END
BEGIN
	-0.0482703574,	-0.229707612
	-0.109109584,	-0.189326001
	-0.182890012,	-0.085555284
	-0.19688138,	 0.00697038727
	-0.165666963,	 0.0973159458
	-0.0101090507,	 0.167810161
	 0.0542903933,	 0.143747772
	 0.0960876556,	 0.108823813
	 0.137754701,	 0.0599206277
	 0.165419515,	 0.0169350657
	 0.187122291,	-0.0474120932
	 0.184403078,	-0.140321865
END
BEGIN
	-0.129047603,	-0.139180167
	-0.185461072,	-0.0652286812
	-0.169833553,	 0.138048542
	-0.0166274636,	 0.238386661
	 0.181596098,	 0.179392178
	 0.142903636,	-0.21125321
	-0.058788681,	-0.236533134
	-0.203831677,	-0.116805597
	-0.198783939,	 0.120198926
	-0.0698256749,	 0.223650247
	 0.100080747,	 0.213949402
	 0.21980028,	 0.0877410707
END
BEGIN
	-0.134717929,	-0.188906245
	-0.184213504,	-0.110893401
	-0.190528707,	 0.0503047324
	-0.122945503,	 0.146886022
	-0.0110939963,	 0.186388002
	 0.153392445,	 0.0604169526
	 0.149442716,	-0.0269622364
	 0.11337001,	-0.0897147514
	 0.0441462179,	-0.144251723
	-0.0202953673,	-0.166390191
	-0.107114558,	-0.162946266
	-0.208093534,	-0.107323129
END
BEGIN
	 0.0304899234,	 0.298348018
	 0.0610071519,	 0.236833843
	 0.0696740654,	 0.175809591
	 0.0846161158,	 0.170102472
	 0.125768,	 0.160117349
	 0.175992094,	 0.0625408976
	 0.158022019,	 0.029961152
	 0.149821144,	 0.0277254173
	 0.188567844,	 0.0270173637
	 0.237647727,	-0.00371306849
	 0.286217065,	-0.0730243718
	 0.313701834,	-0.188886201
END
BEGIN
	 0.0150887638,	 0.0631143006
	 0.0508233398,	 0.0267748211
	 0.0160559147,	-0.0473817989
	-0.0414996183,	-0.0248116891
	-0.031888012,	 0.0367063028
	 0.0412874107,	-0.021578114
	-0.0119488969,	-0.0429187972
	-0.0447660447,	 0.00173361825
	 0.0103736454,	 0.0481255401
	 0.0526383602,	 0.0102080615
	 0.0314279287,	-0.0496069391
	-0.0408184098,	-0.0512596482
END
BEGIN
	 0.0225890183,	-0.279276341
	-0.0772733566,	-0.283692858
	-0.278918357,	-0.178200711
	-0.360975827,	 0.0114595046
	-0.300567747,	 0.237991931
	 0.141791541,	 0.347167714
	 0.295341223,	 0.197883374
	 0.342117729,	 0.0119720014
	 0.263570545,	-0.219433272
	 0.126778129,	-0.328103234
	-0.059528489,	-0.35647879
	-0.244320167,	-0.275055846
END
BEGIN
	-0.0792210235,	-0.00215862596
	-0.0657412482,	 0.0336009813
	-0.00389918507,	 0.0701633054
	 0.049124156,	 0.0498465646
	 0.0685290282,	-0.0056056502
	-0.0150143124,	-0.0560685395
	-0.044708092,	-0.025102077
	-0.0458568745,	 0.0100468611
	-0.0203977883,	 0.0429280934
	 0.00947582138,	 0.0516914836
	 0.0460909055,	 0.0403441051
	 0.0736997723,	-0.000485615095
END
BEGIN
	-0.0501140657,	-0.229211791
	-0.110940511,	-0.188125379
	-0.183910521,	-0.0829296146
	-0.196497862,	 0.0102820798
	-0.163447292,	 0.100392637
	-0.00593745995,	 0.16761051
	 0.0580243863,	 0.141828542
	 0.0989371797,	 0.105582335
	 0.138998958,	 0.0551988106
	 0.165050253,	 0.0112944416
	 0.184331568,	-0.0536697286
	 0.178081762,	-0.146241255
END
BEGIN
	 0.80538936,	-0.164075411
	 0.787195149,	-0.303270267
	 0.666542755,	-0.523788535
	 0.543315882,	-0.630004547
	 0.423942488,	-0.697005098
	 0.19899369,	-0.809967095
	 0.0515226721,	-0.855059271
	-0.120741709,	-0.860195359
	-0.349651564,	-0.784616832
	-0.477855167,	-0.685909006
	-0.573288711,	-0.556706101
	-0.622749059,	-0.403001551
END
BEGIN
	-0.275442192,	-0.136820657
	-0.276327449,	 0.0287256473
	-0.109264898,	 0.203778714
	 0.0366348468,	 0.229633416
	 0.206425853,	 0.161542498
	 0.128781104,	-0.251536731
	-0.0916542178,	-0.247231296
	-0.227340191,	-0.114221202
	-0.235797031,	 0.145416649
	-0.074742726,	 0.290350045
	 0.166565937,	 0.258438879
	 0.28308741,	 0.0479374806
END
BEGIN
	 0.0145492302,	 0.0629480757
	 0.0504507926,	 0.0268484875
	 0.0163571145,	-0.0476385505
	-0.0414687057,	-0.0258622976
	-0.0328453637,	 0.0357039388
	 0.0411432294,	-0.0212028854
	-0.0116661942,	-0.0433719052
	-0.0452015959,	 0.000816542967
	 0.00944303643,	 0.0482977028
	 0.0526858572,	 0.0109121853
	 0.0325780579,	-0.0498145218
	-0.040207855,	-0.0532933673
END
BEGIN
	 0.0150887638,	 0.0631143006
	 0.0508233398,	 0.0267748211
	 0.0160559147,	-0.0473817989
	-0.0414996183,	-0.0248116891
	-0.031888012,	 0.0367063028
	 0.0412874107,	-0.021578114
	-0.0119488969,	-0.0429187972
	-0.0447660447,	 0.00173361824
	 0.0103736454,	 0.0481255401
	 0.0526383602,	 0.0102080615
	 0.0314279287,	-0.0496069391
	-0.0408184098,	-0.0512596482
END
BEGIN
	 0.191522483,	-0.420624104
	-0.110596822,	-0.441542797
	-0.422301047,	-0.0203845377
	-0.258409777,	 0.29463654
	 0.0568571864,	 0.36074112
	 0.256631277,	-0.115175994
	 0.0399288639,	-0.21124001
	-0.114005353,	-0.0978191308
	-0.034870355,	 0.0910613499
	 0.107419187,	 0.0527825879
	 0.130242765,	-0.109561828
	-0.0106536085,	-0.218957106
END
BEGIN
	-0.208770213,	-0.0163465898
	-0.162823428,	 0.110689228
	 0.060425238,	 0.150119624
	 0.121429468,	 0.0249674807
	 0.0670382941,	-0.04638392
	 0.0083331546,	-0.0859397626
	-0.0811631843,	-0.080010786
	-0.126620383,	 0.0281547245
	 0.00133596187,	 0.128297571
	 0.0859235746,	 0.0694764359
	 0.0802649805,	-0.00341165818
	 0.062358395,	-0.0144267338
END
BEGIN
	 0.047411322,	-0.791762203
	-0.271590668,	-0.766560499
	-0.77634593,	-0.354879014
	-0.860072753,	 0.156072681
	-0.625283031,	 0.622002781
	 0.346239303,	 0.836722651
	 0.776945828,	 0.503636943
	 0.937635483,	-0.0374974342
	 0.607623536,	-0.713786575
	 0.145263989,	-0.917126862
	-0.349151973,	-0.850608296
	-0.741121678,	-0.535446416
END
BEGIN
	-0.012007983,	 0.063713071
	 0.0314361493,	 0.0480884827
	 0.0432882998,	-0.0270473177
	-0.00961058161,	-0.0488856214
	-0.0491057069,	-0.00638095013
	 0.0347149558,	 0.0320630765
	 0.0407517661,	-0.021002505
	-0.0043598805,	-0.0455873611
	-0.0488615811,	 0.00502463905
	-0.0208374047,	 0.0493220914
	 0.0378389322,	 0.0460465046
	 0.0657835655,	-0.01501845
END
BEGIN
	-0.0119818518,	 0.0636624248
	 0.0314864113,	 0.0480187037
	 0.0432731582,	-0.0272213495
	-0.00975397266,	-0.0490737425
	-0.0494000263,	-0.0064881103
	 0.0345211699,	 0.032353224
	 0.0407818975,	-0.0207787147
	-0.00430442475,	-0.0456213042
	-0.0492589091,	 0.00486384155
	-0.021570662,	 0.049573624
	 0.0372312082,	 0.0469682537
	 0.0658533248,	-0.013738367
END
BEGIN
	 0.557249225,	-0.254605873
	 0.499571191,	-0.44962568
	 0.127838615,	-0.678023103
	-0.167644895,	-0.566869902
	-0.234116833,	-0.34631234
	-0.192727559,	-0.422505121
	-0.441463917,	-0.429885052
	-0.6590093,	-0.199719378
	-0.598214811,	 0.231129358
	-0.371034388,	 0.363475804
	-0.184345121,	 0.299138245
	-0.184793276,	 0.174136339
END
BEGIN
	 0.0243138607,	-0.279359525
	-0.0752104478,	-0.284534578
	-0.277422412,	-0.181366666
	-0.361764874,	 0.00687282462
	-0.304831317,	 0.234012306
	 0.135478954,	 0.351129604
	 0.292237652,	 0.205104207
	 0.343420288,	 0.0201353991
	 0.270585676,	-0.213631733
	 0.136472761,	-0.32604335
	-0.0490192565,	-0.359524619
	-0.235688953,	-0.283794501
END
BEGIN
	 0.0225890183,	-0.279276341
	-0.0772733566,	-0.283692858
	-0.278918357,	-0.178200711
	-0.360975827,	 0.0114595046
	-0.300567747,	 0.237991931
	 0.141791541,	 0.347167714
	 0.295341223,	 0.197883374
	 0.342117729,	 0.0119720014
	 0.263570545,	-0.219433272
	 0.126778129,	-0.328103234
	-0.059528489,	-0.35647879
	-0.244320167,	-0.275055846
END
BEGIN
	-0.208770213,	-0.0163465898
	-0.162823428,	 0.110689228
	 0.060425238,	 0.150119624
	 0.121429468,	 0.0249674807
	 0.0670382941,	-0.04638392
	 0.0083331546,	-0.0859397626
	-0.0811631843,	-0.080010786
	-0.126620383,	 0.0281547245
	 0.00133596187,	 0.128297571
	 0.0859235746,	 0.0694764359
	 0.0802649805,	-0.00341165818
	 0.062358395,	-0.0144267338
END
BEGIN
	-0.163929116,	 0.415286202
	-0.017977552,	 0.310327708
	 0.0416112488,	-0.0329628332
	-0.163033563,	-0.211604108
	-0.427681779,	-0.137187298
	-0.306040237,	 0.300547171
	-0.078482354,	 0.244116392
	 0.0120879403,	 0.0423462718
	-0.145198216,	-0.209517213
	-0.370632674,	-0.229723232
	-0.561766572,	-0.0698204168
	-0.571212179,	 0.198235216
END
BEGIN
	 0.085963447,	-0.239530927
	 0.00600677106,	-0.250933421
	-0.134304571,	-0.174661253
	-0.157547677,	-0.0703546099
	-0.112292432,	-0.0101853674
	-0.102840581,	-0.0265668621
	-0.131527843,	 0.00988428572
	-0.126386739,	 0.0646251379
	-0.0760477517,	 0.114379493
	-0.0336120477,	 0.118345017
	-0.00864513502,	 0.0967490531
	-0.0277781466,	 0.0772240262
END
BEGIN
	 0.135187756,	-0.247203972
	 0.0722334771,	-0.287340596
	-0.101030939,	-0.319499182
	-0.255452804,	-0.263463533
	-0.37356227,	-0.114853299
	-0.288043621,	 0.253799733
	-0.138113291,	 0.337046273
	 0.011859752,	 0.350498555
	 0.194001325,	 0.292070847
	 0.296995748,	 0.201124036
	 0.361326949,	 0.065962455
	 0.359955461,	-0.095472049
END
BEGIN
	 0.135662841,	-0.246924658
	 0.0728784415,	-0.287155741
	-0.100052336,	-0.31969468
	-0.254372933,	-0.264259048
	-0.372868172,	-0.116381631
	-0.289188695,	 0.252094595
	-0.139990588,	 0.335968026
	 0.00955807154,	 0.350318577
	 0.191821621,	 0.293399576
	 0.295581743,	 0.20340663
	 0.361253565,	 0.0686898826
	 0.361409899,	-0.093370122
END
BEGIN
	 0.249211812,	-0.278311591
	 0.176368985,	-0.306406755
	 0.0725433324,	-0.304602208
	 0.0277283288,	-0.320528329
	-0.0595476293,	-0.356773273
	-0.280380153,	-0.220240796
	-0.285387648,	-0.118011529
	-0.269614316,	-0.0657119005
	-0.288286217,	-0.0205369612
	-0.316282804,	 0.0393685214
	-0.316211409,	 0.132969931
	-0.258813209,	 0.221262804
END
BEGIN
	-0.0790825681,	-0.00285245732
	-0.0659705916,	 0.0329057796
	-0.00463695666,	 0.0700602079
	 0.0486230544,	 0.05040809
	 0.0688366272,	-0.00484071441
	-0.0141882036,	-0.0570530466
	-0.0448712461,	-0.0266668557
	-0.0472043187,	 0.00873952053
	-0.0227596349,	 0.0430842055
	 0.00721292554,	 0.0532860214
	 0.0448252501,	 0.0433936224
	 0.0745188666,	 0.00343129847
END
BEGIN
	-0.0792210235,	-0.00215862596
	-0.0657412482,	 0.0336009813
	-0.00389918506,	 0.0701633054
	 0.049124156,	 0.0498465646
	 0.0685290282,	-0.0056056502
	-0.0150143124,	-0.0560685395
	-0.044708092,	-0.025102077
	-0.0458568745,	 0.0100468611
	-0.0203977883,	 0.0429280934
	 0.00947582138,	 0.0516914836
	 0.0460909055,	 0.0403441051
	 0.0736997723,	-0.000485615095
END
BEGIN
	 0.047411322,	-0.791762203
	-0.271590668,	-0.766560499
	-0.77634593,	-0.354879014
	-0.860072753,	 0.156072681
	-0.625283031,	 0.622002781
	 0.346239303,	 0.836722651
	 0.776945828,	 0.503636943
	 0.937635483,	-0.0374974342
	 0.607623536,	-0.713786575
	 0.145263989,	-0.917126862
	-0.349151973,	-0.850608296
	-0.741121678,	-0.535446416
END
BEGIN
	 0.085963447,	-0.239530927
	 0.00600677106,	-0.250933421
	-0.134304571,	-0.174661253
	-0.157547677,	-0.0703546099
	-0.112292432,	-0.0101853674
	-0.102840581,	-0.0265668621
	-0.131527843,	 0.00988428572
	-0.126386739,	 0.0646251379
	-0.0760477517,	 0.114379493
	-0.0336120477,	 0.118345017
	-0.00864513502,	 0.0967490531
