CITIFILE A.01.01
#Momentum: B.10.20.363 (*) 2012.08 Sep  5 2012 
#Momentum Date and Time: Mon Sep 10 16:12:09 2012

NAME Momentum.SP

#  mode: MW    project: proj    reference: S_50

CONSTANT NBR_OF_PORTS 8

CONSTANT NORMALIZATION 1

VAR freq MAG 12

DATA S[1,1] RI
DATA S[1,2] RI
DATA S[1,3] RI
DATA S[1,4] RI
DATA S[1,5] RI
DATA S[1,6] RI
DATA S[1,7] RI
DATA S[1,8] RI
DATA S[2,1] RI
DATA S[2,2] RI
DATA S[2,3] RI
DATA S[2,4] RI
DATA S[2,5] RI
DATA S[2,6] RI
DATA S[2,7] RI
DATA S[2,8] RI
DATA S[3,1] RI
DATA S[3,2] RI
DATA S[3,3] RI
DATA S[3,4] RI
DATA S[3,5] RI
DATA S[3,6] RI
DATA S[3,7] RI
DATA S[3,8] RI
DATA S[4,1] RI
DATA S[4,2] RI
DATA S[4,3] RI
DATA S[4,4] RI
DATA S[4,5] RI
DATA S[4,6] RI
DATA S[4,7] RI
DATA S[4,8] RI
DATA S[5,1] RI
DATA S[5,2] RI
DATA S[5,3] RI
DATA S[5,4] RI
DATA S[5,5] RI
DATA S[5,6] RI
DATA S[5,7] RI
DATA S[5,8] RI
DATA S[6,1] RI
DATA S[6,2] RI
DATA S[6,3] RI
DATA S[6,4] RI
DATA S[6,5] RI
DATA S[6,6] RI
DATA S[6,7] RI
DATA S[6,8] RI
DATA S[7,1] RI
DATA S[7,2] RI
DATA S[7,3] RI
DATA S[7,4] RI
DATA S[7,5] RI
DATA S[7,6] RI
DATA S[7,7] RI
DATA S[7,8] RI
DATA S[8,1] RI
DATA S[8,2] RI
DATA S[8,3] RI
DATA S[8,4] RI
DATA S[8,5] RI
DATA S[8,6] RI
DATA S[8,7] RI
DATA S[8,8] RI
DATA S_50[1,1] RI
DATA S_50[1,2] RI
DATA S_50[1,3] RI
DATA S_50[1,4] RI
DATA S_50[1,5] RI
DATA S_50[1,6] RI
DATA S_50[1,7] RI
DATA S_50[1,8] RI
DATA S_50[2,1] RI
DATA S_50[2,2] RI
DATA S_50[2,3] RI
DATA S_50[2,4] RI
DATA S_50[2,5] RI
DATA S_50[2,6] RI
DATA S_50[2,7] RI
DATA S_50[2,8] RI
DATA S_50[3,1] RI
DATA S_50[3,2] RI
DATA S_50[3,3] RI
DATA S_50[3,4] RI
DATA S_50[3,5] RI
DATA S_50[3,6] RI
DATA S_50[3,7] RI
DATA S_50[3,8] RI
DATA S_50[4,1] RI
DATA S_50[4,2] RI
DATA S_50[4,3] RI
DATA S_50[4,4] RI
DATA S_50[4,5] RI
DATA S_50[4,6] RI
DATA S_50[4,7] RI
DATA S_50[4,8] RI
DATA S_50[5,1] RI
DATA S_50[5,2] RI
DATA S_50[5,3] RI
DATA S_50[5,4] RI
DATA S_50[5,5] RI
DATA S_50[5,6] RI
DATA S_50[5,7] RI
DATA S_50[5,8] RI
DATA S_50[6,1] RI
DATA S_50[6,2] RI
DATA S_50[6,3] RI
DATA S_50[6,4] RI
DATA S_50[6,5] RI
DATA S_50[6,6] RI
DATA S_50[6,7] RI
DATA S_50[6,8] RI
DATA S_50[7,1] RI
DATA S_50[7,2] RI
DATA S_50[7,3] RI
DATA S_50[7,4] RI
DATA S_50[7,5] RI
DATA S_50[7,6] RI
DATA S_50[7,7] RI
DATA S_50[7,8] RI
DATA S_50[8,1] RI
DATA S_50[8,2] RI
DATA S_50[8,3] RI
DATA S_50[8,4] RI
DATA S_50[8,5] RI
DATA S_50[8,6] RI
DATA S_50[8,7] RI
DATA S_50[8,8] RI
DATA S_Z0[1,1] RI
DATA S_Z0[1,2] RI
DATA S_Z0[1,3] RI
DATA S_Z0[1,4] RI
DATA S_Z0[1,5] RI
DATA S_Z0[1,6] RI
DATA S_Z0[1,7] RI
DATA S_Z0[1,8] RI
DATA S_Z0[2,1] RI
DATA S_Z0[2,2] RI
DATA S_Z0[2,3] RI
DATA S_Z0[2,4] RI
DATA S_Z0[2,5] RI
DATA S_Z0[2,6] RI
DATA S_Z0[2,7] RI
DATA S_Z0[2,8] RI
DATA S_Z0[3,1] RI
DATA S_Z0[3,2] RI
DATA S_Z0[3,3] RI
DATA S_Z0[3,4] RI
DATA S_Z0[3,5] RI
DATA S_Z0[3,6] RI
DATA S_Z0[3,7] RI
DATA S_Z0[3,8] RI
DATA S_Z0[4,1] RI
DATA S_Z0[4,2] RI
DATA S_Z0[4,3] RI
DATA S_Z0[4,4] RI
DATA S_Z0[4,5] RI
DATA S_Z0[4,6] RI
DATA S_Z0[4,7] RI
DATA S_Z0[4,8] RI
DATA S_Z0[5,1] RI
DATA S_Z0[5,2] RI
DATA S_Z0[5,3] RI
DATA S_Z0[5,4] RI
DATA S_Z0[5,5] RI
DATA S_Z0[5,6] RI
DATA S_Z0[5,7] RI
DATA S_Z0[5,8] RI
DATA S_Z0[6,1] RI
DATA S_Z0[6,2] RI
DATA S_Z0[6,3] RI
DATA S_Z0[6,4] RI
DATA S_Z0[6,5] RI
DATA S_Z0[6,6] RI
DATA S_Z0[6,7] RI
DATA S_Z0[6,8] RI
DATA S_Z0[7,1] RI
DATA S_Z0[7,2] RI
DATA S_Z0[7,3] RI
DATA S_Z0[7,4] RI
DATA S_Z0[7,5] RI
DATA S_Z0[7,6] RI
DATA S_Z0[7,7] RI
DATA S_Z0[7,8] RI
DATA S_Z0[8,1] RI
DATA S_Z0[8,2] RI
DATA S_Z0[8,3] RI
DATA S_Z0[8,4] RI
DATA S_Z0[8,5] RI
DATA S_Z0[8,6] RI
DATA S_Z0[8,7] RI
DATA S_Z0[8,8] RI
DATA GAMMA[1] RI
DATA GAMMA[4] RI
DATA GAMMA[5] RI
DATA GAMMA[6] RI
DATA GAMMA[7] RI
DATA Z0[1] RI
DATA Z0[2] RI
DATA Z0[3] RI
DATA Z0[4] RI
DATA Z0[5] RI
DATA Z0[6] RI
DATA Z0[7] RI
DATA Z0[8] RI
DATA PORTZ[1] RI
DATA PORTZ[2] RI
DATA PORTZ[3] RI
DATA PORTZ[4] RI
DATA PORTZ[5] RI
DATA PORTZ[6] RI
DATA PORTZ[7] RI
DATA PORTZ[8] RI

VAR_LIST_BEGIN
	 1000000000
	 1222222222
	 1666666667
	 2000000000
	 2333333333
	 3000000000
	 3333333333
	 3666666667
	 4111111111
	 4407407408
	 4703703704
	 5000000000
VAR_LIST_END

BEGIN
	 0.0522847144,	 0.491935332
	 0.146569586,	 0.409468252
	 0.263765836,	 0.327281096
	 0.447841365,	 0.240598781
	 0.593401842,	-0.0679886089
	 0.0210043276,	-0.552740097
	-0.239873377,	-0.385153093
	-0.318822268,	-0.221655274
	-0.440824482,	-0.0692514211
	-0.528107038,	 0.161204092
	-0.429347186,	 0.491875532
	-0.0827410487,	 0.701094809
END
BEGIN
	-0.128244405,	-0.140195786
	-0.185136772,	-0.0667934322
	-0.171535445,	 0.136384846
	-0.0197267831,	 0.238534288
	 0.179260878,	 0.182466087
	 0.147453649,	-0.209176883
	-0.0538998207,	-0.238736592
	-0.201936898,	-0.122195422
	-0.202889609,	 0.115368173
	-0.076603398,	 0.222395172
	 0.0934403634,	 0.217586296
	 0.216722184,	 0.0955967836
END
BEGIN
	-0.129047646,	-0.139179967
	-0.185460908,	-0.0652284988
	-0.169833297,	 0.138048245
	-0.0166277341,	 0.238386175
	 0.181595354,	 0.179392325
	 0.142904511,	-0.211252871
	-0.0587880858,	-0.236533742
	-0.203831908,	-0.116806313
	-0.198784528,	 0.120198957
	-0.0698259604,	 0.22365058
	 0.100080641,	 0.213949678
	 0.219800126,	 0.0877415999
END
BEGIN
	-0.27544147,	-0.136820461
	-0.276326854,	 0.0287252972
	-0.109265009,	 0.203778209
	 0.0366343892,	 0.229633047
	 0.206425047,	 0.161542816
	 0.128782163,	-0.251536797
	-0.0916541789,	-0.247232206
	-0.227340971,	-0.114221346
	-0.235797,	 0.1454175
	-0.0747417768,	 0.290350463
	 0.166566902,	 0.2584381
	 0.283087371,	 0.047936158
END
BEGIN
	 0.557248917,	-0.254605833
	 0.499570971,	-0.449625279
	 0.127839374,	-0.678022854
	-0.16764426,	-0.566870841
	-0.23411784,	-0.346313472
	-0.192727078,	-0.422503264
	-0.441462057,	-0.429884852
	-0.659008308,	-0.199720897
	-0.59821623,	 0.231128061
	-0.371036445,	 0.363476143
	-0.184346296,	 0.299140306
	-0.184791951,	 0.17413905
END
BEGIN
	 0.249213344,	-0.278312296
	 0.176370132,	-0.306408308
	 0.0725427603,	-0.304604462
	 0.0277262826,	-0.320530152
	-0.0595509837,	-0.356773598
	-0.280381366,	-0.220236356
	-0.285385648,	-0.118006939
	-0.269609505,	-0.0657091067
	-0.288279677,	-0.0205394325
	-0.31627869,	 0.0393614971
	-0.316213277,	 0.132961185
	-0.25882064,	 0.221257743
END
BEGIN
	-0.061249593,	-0.180725688
	-0.130501351,	-0.148967171
	-0.221399899,	-0.0030324332
	-0.190279978,	 0.150505578
	-0.045265148,	 0.256080747
	 0.252793084,	 0.0665702317
	 0.225773133,	-0.108309157
	 0.105277764,	-0.217565826
	-0.100477354,	-0.216736423
	-0.207045456,	-0.122232355
	-0.240682728,	 0.0204406797
	-0.181913757,	 0.157893283
END
BEGIN
	-0.0608569705,	-0.180802189
	-0.130115917,	-0.149275446
	-0.221407831,	-0.0037367976
	-0.190876278,	 0.149820977
	-0.0463746185,	 0.255965998
	 0.252535346,	 0.0679107373
	 0.226444039,	-0.107039091
	 0.106650938,	-0.216929177
	-0.0990001569,	-0.217427393
	-0.206202093,	-0.123673444
	-0.240857623,	 0.01883828
	-0.182886108,	 0.1569314
END
BEGIN
	-0.128244405,	-0.140195786
	-0.185136772,	-0.0667934322
	-0.171535445,	 0.136384846
	-0.0197267831,	 0.238534288
	 0.179260878,	 0.182466087
	 0.147453649,	-0.209176883
	-0.0538998208,	-0.238736592
	-0.201936898,	-0.122195422
	-0.202889609,	 0.115368173
	-0.076603398,	 0.222395172
	 0.0934403634,	 0.217586296
	 0.216722184,	 0.0955967836
END
BEGIN
	 0.0287305759,	 0.300012897
	 0.0601109947,	 0.238776247
	 0.0700164161,	 0.177038973
	 0.0849823588,	 0.170598292
	 0.12592878,	 0.160429852
	 0.176925516,	 0.0615853901
	 0.157879056,	 0.0271345722
	 0.14664687,	 0.0240592163
	 0.180390635,	 0.0263607327
	 0.227619342,	 0.000636890945
	 0.2773527,	-0.06184203
	 0.310938492,	-0.170575242
END
BEGIN
	-0.134718006,	-0.188906711
	-0.184213781,	-0.110893763
	-0.190529088,	 0.0503047226
	-0.122945793,	 0.146886177
	-0.0110942226,	 0.186388278
	 0.153392824,	 0.0604172932
	 0.14944315,	-0.026962299
	 0.113370209,	-0.0897150026
	 0.0441462216,	-0.144251888
	-0.020295426,	-0.166390259
	-0.107114538,	-0.162946097
	-0.208092797,	-0.107322944
END
BEGIN
	 0.0145491662,	 0.062947967
	 0.0504506561,	 0.0268484942
	 0.0163572097,	-0.0476384203
	-0.0414685606,	-0.0258624121
	-0.0328455158,	 0.0357037819
	 0.0411434651,	-0.0212027691
	-0.011666106,	-0.0433721409
	-0.0452018151,	 0.000816481731
	 0.00944312923,	 0.0482978947
	 0.0526860503,	 0.010912067
	 0.0325778746,	-0.049814722
	-0.0402080976,	-0.0532931219
END
BEGIN
	 0.0243139537,	-0.279359626
	-0.0752103246,	-0.2845347
	-0.277422344,	-0.181367008
	-0.36176506,	 0.00687237023
	-0.304831925,	 0.23401195
	 0.135478575,	 0.351130536
	 0.292237997,	 0.205105037
	 0.343420931,	 0.0201358409
	 0.270586504,	-0.213631844
	 0.13647339,	-0.326043889
	-0.0490190199,	-0.359525283
	-0.235688981,	-0.28379523
END
BEGIN
	-0.0790829283,	-0.00285262273
	-0.0659709867,	 0.0329059075
	-0.00463683506,	 0.070060662
	 0.0486235658,	 0.0504081412
	 0.0688368463,	-0.00484122151
	-0.0141887369,	-0.0570526681
	-0.0448709968,	-0.026666157
	-0.0472034459,	 0.00873949102
	-0.0227597609,	 0.04308308
	 0.00721164079,	 0.0532855217
	 0.0448239746,	 0.0433947249
	 0.0745193762,	 0.00343331596
END
BEGIN
	 0.804965741,	-0.162827008
	 0.787115318,	-0.301706811
	 0.667236528,	-0.521932503
	 0.544544811,	-0.628111169
	 0.425671474,	-0.695090008
	 0.202393153,	-0.808126283
	 0.0561130728,	-0.854009411
	-0.115308398,	-0.860684834
	-0.344370978,	-0.787885221
	-0.473788104,	-0.691051002
	-0.571507841,	-0.563274962
	-0.624462806,	-0.409790852
END
BEGIN
	-0.0482702162,	-0.229708077
	-0.109109627,	-0.189326468
	-0.182890284,	-0.0855555683
	-0.196881692,	 0.00697023259
	-0.165667346,	 0.0973158687
	-0.0101093092,	 0.167810621
	 0.0542904703,	 0.143748204
	 0.0960878667,	 0.108824011
	 0.137754814,	 0.0599206904
	 0.165419553,	 0.01693509
	 0.1871221,	-0.0474120406
	 0.184402608,	-0.140321166
END
BEGIN
	-0.129047646,	-0.139179967
	-0.185460908,	-0.0652284988
	-0.169833297,	 0.138048246
	-0.0166277341,	 0.238386175
	 0.181595354,	 0.179392325
	 0.142904511,	-0.211252871
	-0.0587880857,	-0.236533742
	-0.203831908,	-0.116806313
	-0.198784528,	 0.120198957
	-0.0698259604,	 0.22365058
	 0.100080641,	 0.213949678
	 0.219800126,	 0.0877415999
END
BEGIN
	-0.134718006,	-0.188906711
	-0.184213781,	-0.110893763
	-0.190529088,	 0.0503047225
	-0.122945793,	 0.146886177
	-0.0110942226,	 0.186388278
	 0.153392824,	 0.0604172932
	 0.14944315,	-0.0269622991
	 0.113370209,	-0.0897150026
	 0.0441462216,	-0.144251888
	-0.020295426,	-0.166390259
	-0.107114538,	-0.162946097
	-0.208092797,	-0.107322944
END
BEGIN
	 0.030489861,	 0.2983483
	 0.061007179,	 0.236833983
	 0.0696739728,	 0.175809443
	 0.0846157395,	 0.170102259
	 0.12576724,	 0.160117373
	 0.175991704,	 0.0625419822
	 0.158022161,	 0.0299623271
	 0.149821603,	 0.0277265201
	 0.188569006,	 0.0270181718
	 0.237649115,	-0.00371287966
	 0.28621818,	-0.0730247808
	 0.313702386,	-0.188886786
END
BEGIN
	 0.0150887165,	 0.0631141039
	 0.0508231446,	 0.0267747731
	 0.0160559775,	-0.0473815952
	-0.0414994061,	-0.0248117624
	-0.0318881219,	 0.036706086
	 0.0412876049,	-0.0215779345
	-0.0119487469,	-0.0429189774
	-0.0447661994,	 0.00173350724
	 0.0103736765,	 0.0481256854
	 0.052638513,	 0.0102079971
	 0.0314278332,	-0.0496071291
	-0.0408186366,	-0.0512595666
END
BEGIN
	 0.0225889135,	-0.279276097
	-0.0772732509,	-0.283692559
	-0.278917892,	-0.178200719
	-0.360975434,	 0.0114590273
	-0.300567925,	 0.237991129
	 0.141790737,	 0.347168213
	 0.295340986,	 0.197884176
	 0.342117985,	 0.0119728097
	 0.26357148,	-0.21943282
	 0.126779277,	-0.328103432
	-0.0595275835,	-0.356479752
	-0.244319939,	-0.275057455
END
BEGIN
	-0.0792212842,	-0.00215873806
	-0.0657415375,	 0.033601095
	-0.00389903833,	 0.0701636491
	 0.0491245869,	 0.0498465295
	 0.0685291291,	-0.00560613477
	-0.0150147776,	-0.0560680755
	-0.044707743,	-0.0251013881
	-0.0458559643,	 0.0100467507
	-0.0203979829,	 0.0429269079
	 0.00947443842,	 0.0516910089
	 0.0460896053,	 0.0403453404
	 0.0737004269,	-0.000483469503
END
BEGIN
	-0.050113923,	-0.229212257
	-0.110940555,	-0.188125849
	-0.183910799,	-0.0829299013
	-0.196498179,	 0.0102819262
	-0.16344768,	 0.100392564
	-0.00593771273,	 0.167610982
	 0.0580244872,	 0.141828969
	 0.0989373981,	 0.105582548
	 0.138999079,	 0.0551988847
	 0.165050303,	 0.0112944795
	 0.184331403,	-0.0536696527
	 0.178081361,	-0.146240522
END
BEGIN
	 0.805389165,	-0.164075178
	 0.787195079,	-0.303270131
	 0.666542744,	-0.523788716
	 0.543315747,	-0.630004974
	 0.423941986,	-0.697005722
	 0.19899246,	-0.80996708
	 0.0515214923,	-0.855058906
	-0.120742851,	-0.860194754
	-0.349652584,	-0.78461572
	-0.4778558,	-0.685907652
	-0.57328884,	-0.556704858
	-0.62274899,	-0.403000728
END
BEGIN
	-0.27544147,	-0.136820461
	-0.276326854,	 0.0287252972
	-0.109265009,	 0.203778209
	 0.0366343892,	 0.229633047
	 0.206425047,	 0.161542816
	 0.128782163,	-0.251536797
	-0.0916541789,	-0.247232206
	-0.227340971,	-0.114221346
	-0.235797,	 0.1454175
	-0.0747417768,	 0.290350463
	 0.166566902,	 0.2584381
	 0.283087371,	 0.047936158
END
BEGIN
	 0.0145491662,	 0.062947967
	 0.0504506561,	 0.0268484942
	 0.0163572097,	-0.0476384203
	-0.0414685606,	-0.0258624121
	-0.0328455158,	 0.0357037819
	 0.0411434651,	-0.0212027691
	-0.011666106,	-0.0433721409
	-0.0452018151,	 0.000816481731
	 0.00944312923,	 0.0482978947
	 0.0526860503,	 0.010912067
	 0.0325778746,	-0.049814722
	-0.0402080976,	-0.0532931219
END
BEGIN
	 0.0150887165,	 0.0631141039
	 0.0508231446,	 0.0267747731
	 0.0160559775,	-0.0473815952
	-0.0414994061,	-0.0248117624
	-0.0318881219,	 0.036706086
	 0.0412876049,	-0.0215779345
	-0.0119487469,	-0.0429189774
	-0.0447661994,	 0.00173350724
	 0.0103736765,	 0.0481256854
	 0.052638513,	 0.0102079971
	 0.0314278332,	-0.0496071291
	-0.0408186366,	-0.0512595666
END
BEGIN
	 0.191526928,	-0.420626777
	-0.110592937,	-0.441548425
	-0.422304742,	-0.0203942181
	-0.258421213,	 0.294630914
	 0.056842755,	 0.360745301
	 0.256634934,	-0.115157263
	 0.0399452812,	-0.211227256
	-0.113982572,	-0.0978202191
	-0.0348563295,	 0.0910395864
	 0.107417082,	 0.0527545255
	 0.13022247,	-0.109584404
	-0.0106856414,	-0.218962751
END
BEGIN
	-0.208769573,	-0.0163466903
	-0.162823126,	 0.110688637
	 0.0604246397,	 0.15011956
	 0.121429408,	 0.0249679531
	 0.0670385991,	-0.0463839498
	 0.00833321985,	-0.0859394945
	-0.0811628673,	-0.0800109428
	-0.126620565,	 0.0281544011
	 0.00133574596,	 0.128297949
	 0.0859239637,	 0.0694768134
	 0.0802656474,	-0.00341197056
	 0.0623583934,	-0.014427902
END
BEGIN
	 0.0474113165,	-0.791760213
	-0.271589369,	-0.766558702
	-0.776343548,	-0.354879736
	-0.860071817,	 0.156070297
	-0.625284333,	 0.622000541
	 0.34623771,	 0.836724588
	 0.776946704,	 0.503639173
	 0.937637906,	-0.037497263
	 0.60762374,	-0.713789637
	 0.145260788,	-0.917129131
	-0.349156606,	-0.850606603
	-0.74112367,	-0.535440842
END
BEGIN
	-0.0120080054,	 0.0637129445
	 0.0314360196,	 0.0480884278
	 0.0432882991,	-0.0270471462
	-0.00961038167,	-0.0488855963
	-0.0491056616,	-0.00638118531
	 0.0347149135,	 0.0320633464
	 0.040752018,	-0.0210024622
	-0.00435983369,	-0.0455875931
	-0.0488618012,	 0.00502470761
	-0.0208373593,	 0.0493223225
	 0.0378391679,	 0.0460464448
	 0.0657834881,	-0.0150187094
END
BEGIN
	-0.0119818188,	 0.0636622249
	 0.0314862619,	 0.0480185696
	 0.0432730859,	-0.0272211474
	-0.00975375702,	-0.0490736439
	-0.0493999052,	-0.00648835127
	 0.0345210444,	 0.0323534748
	 0.0407821129,	-0.020778588
	-0.00430431039,	-0.0456214773
	-0.04925908,	 0.00486382425
	-0.0215706894,	 0.0495737794
	 0.0372313622,	 0.0469682676
	 0.0658533358,	-0.0137385279
END
BEGIN
	 0.557248917,	-0.254605833
	 0.499570971,	-0.449625279
	 0.127839374,	-0.678022854
	-0.16764426,	-0.566870841
	-0.23411784,	-0.346313472
	-0.192727078,	-0.422503264
	-0.441462057,	-0.429884852
	-0.659008308,	-0.199720897
	-0.59821623,	 0.231128061
	-0.371036445,	 0.363476143
	-0.184346296,	 0.299140306
	-0.184791951,	 0.17413905
END
BEGIN
	 0.0243139537,	-0.279359626
	-0.0752103246,	-0.2845347
	-0.277422344,	-0.181367008
	-0.36176506,	 0.00687237023
	-0.304831925,	 0.23401195
	 0.135478575,	 0.351130536
	 0.292237997,	 0.205105037
	 0.343420931,	 0.0201358409
	 0.270586504,	-0.213631844
	 0.13647339,	-0.326043889
	-0.0490190199,	-0.359525283
	-0.235688981,	-0.28379523
END
BEGIN
	 0.0225889135,	-0.279276097
	-0.0772732509,	-0.283692559
	-0.278917892,	-0.178200719
	-0.360975434,	 0.0114590273
	-0.300567925,	 0.237991129
	 0.141790737,	 0.347168213
	 0.295340986,	 0.197884176
	 0.342117985,	 0.0119728097
	 0.26357148,	-0.21943282
	 0.126779277,	-0.328103432
	-0.0595275835,	-0.356479752
	-0.244319939,	-0.275057455
END
BEGIN
	-0.208769573,	-0.0163466903
	-0.162823126,	 0.110688637
	 0.0604246397,	 0.15011956
	 0.121429408,	 0.0249679531
	 0.0670385991,	-0.0463839498
	 0.00833321985,	-0.0859394945
	-0.0811628673,	-0.0800109428
	-0.126620565,	 0.0281544011
	 0.00133574596,	 0.128297949
	 0.0859239637,	 0.0694768134
	 0.0802656474,	-0.00341197056
	 0.0623583934,	-0.014427902
END
BEGIN
	-0.163929905,	 0.415286296
	-0.0179783728,	 0.310328452
	 0.0416119411,	-0.0329612205
	-0.163031353,	-0.211603557
	-0.427679621,	-0.1371891
	-0.306043017,	 0.300545434
	-0.0784855233,	 0.244117269
	 0.0120862314,	 0.042349315
	-0.145195967,	-0.209513964
	-0.370628576,	-0.229722346
	-0.561762847,	-0.0698226946
	-0.57121116,	 0.198230657
END
BEGIN
	 0.0859642413,	-0.239531592
	 0.00600710902,	-0.250934596
	-0.134305711,	-0.174662193
	-0.157549159,	-0.0703544259
	-0.112293415,	-0.010184353
	-0.102839972,	-0.0265650688
	-0.13152565,	 0.00988549051
	-0.126383854,	 0.0646240952
	-0.0760477399,	 0.114376095
	-0.0336143564,	 0.118342876
	-0.00864752017,	 0.096749064
	-0.027779434,	 0.0772243829
END
BEGIN
	 0.135187912,	-0.247204011
	 0.0722336878,	-0.287340633
	-0.101030603,	-0.319499429
	-0.255452531,	-0.263464047
	-0.373562301,	-0.114854119
	-0.288044738,	 0.253799592
	-0.138114171,	 0.337046739
	 0.011859197,	 0.350499255
	 0.194001209,	 0.292071788
	 0.296996033,	 0.201124932
	 0.361327451,	 0.0659631071
	 0.359956176,	-0.0954715057
END
BEGIN
	 0.13566267,	-0.246924461
	 0.0728784237,	-0.287155415
	-0.10005191,	-0.319694395
	-0.254372241,	-0.264259128
	-0.372867565,	-0.116382337
	-0.289189523,	 0.252093877
	-0.139991603,	 0.335967879
	 0.00955711656,	 0.350318875
	 0.191820904,	 0.293400561
	 0.295581555,	 0.203407978
	 0.361254116,	 0.0686912875
	 0.361411287,	-0.0933689534
END
BEGIN
	 0.249213344,	-0.278312296
	 0.176370132,	-0.306408308
	 0.0725427603,	-0.304604462
	 0.0277262826,	-0.320530152
	-0.0595509837,	-0.356773598
	-0.280381366,	-0.220236356
	-0.285385648,	-0.118006939
	-0.269609505,	-0.0657091067
	-0.288279677,	-0.0205394325
	-0.31627869,	 0.0393614971
	-0.316213277,	 0.132961185
	-0.25882064,	 0.221257743
END
BEGIN
	-0.0790829283,	-0.00285262273
	-0.0659709867,	 0.0329059075
	-0.00463683506,	 0.070060662
	 0.0486235658,	 0.0504081412
	 0.0688368463,	-0.00484122151
	-0.0141887369,	-0.0570526681
	-0.0448709968,	-0.026666157
	-0.0472034459,	 0.00873949102
	-0.0227597609,	 0.04308308
	 0.00721164079,	 0.0532855217
	 0.0448239746,	 0.0433947249
	 0.0745193762,	 0.00343331596
END
BEGIN
	-0.0792212842,	-0.00215873806
	-0.0657415375,	 0.033601095
	-0.00389903834,	 0.0701636491
	 0.0491245869,	 0.0498465295
	 0.0685291291,	-0.00560613477
	-0.0150147776,	-0.0560680755
	-0.044707743,	-0.0251013881
	-0.0458559643,	 0.0100467507
	-0.0203979829,	 0.0429269079
	 0.00947443842,	 0.0516910089
	 0.0460896053,	 0.0403453404
	 0.0737004269,	-0.000483469503
END
BEGIN
	 0.0474113165,	-0.791760213
	-0.271589369,	-0.766558702
	-0.776343548,	-0.354879736
	-0.860071817,	 0.156070297
	-0.625284333,	 0.622000541
	 0.34623771,	 0.836724588
	 0.776946704,	 0.503639173
	 0.937637906,	-0.037497263
	 0.60762374,	-0.713789637
	 0.145260788,	-0.917129131
	-0.349156606,	-0.850606603
	-0.74112367,	-0.535440842
END
BEGIN
	 0.0859642413,	-0.239531592
	 0.00600710902,	-0.250934596
	-0.134305711,	-0.174662193
	-0.157549159,	-0.0703544259
	-0.112293415,	-0.010184353
	-0.102839972,	-0.0265650688
	-0.13152565,	 0.00988549051
	-0.126383854,	 0.0646240952
	-0.0760477399,	 0.114376095
	-0.0336143564,	 0.118342876
	-0.00864752017,	 0.096749064
	-0.027779434,	 0.0772243829
END
BEGIN
