CITIFILE A.01.01
#Momentum: B.10.20.363 (*) 2012.08 Sep  5 2012 
#Momentum Date and Time: Sun Sep 09 16:14:22 2012

NAME Momentum.SP

#  mode: MW    project: proj    reference: S_50

CONSTANT NBR_OF_PORTS 8

CONSTANT NORMALIZATION 1

VAR freq MAG 12

DATA S[1,1] RI
DATA S[1,2] RI
DATA S[1,3] RI
DATA S[1,4] RI
DATA S[1,5] RI
DATA S[1,6] RI
DATA S[1,7] RI
DATA S[1,8] RI
DATA S[2,1] RI
DATA S[2,2] RI
DATA S[2,3] RI
DATA S[2,4] RI
DATA S[2,5] RI
DATA S[2,6] RI
DATA S[2,7] RI
DATA S[2,8] RI
DATA S[3,1] RI
DATA S[3,2] RI
DATA S[3,3] RI
DATA S[3,4] RI
DATA S[3,5] RI
DATA S[3,6] RI
DATA S[3,7] RI
DATA S[3,8] RI
DATA S[4,1] RI
DATA S[4,2] RI
DATA S[4,3] RI
DATA S[4,4] RI
DATA S[4,5] RI
DATA S[4,6] RI
DATA S[4,7] RI
DATA S[4,8] RI
DATA S[5,1] RI
DATA S[5,2] RI
DATA S[5,3] RI
DATA S[5,4] RI
DATA S[5,5] RI
DATA S[5,6] RI
DATA S[5,7] RI
DATA S[5,8] RI
DATA S[6,1] RI
DATA S[6,2] RI
DATA S[6,3] RI
DATA S[6,4] RI
DATA S[6,5] RI
DATA S[6,6] RI
DATA S[6,7] RI
DATA S[6,8] RI
DATA S[7,1] RI
DATA S[7,2] RI
DATA S[7,3] RI
DATA S[7,4] RI
DATA S[7,5] RI
DATA S[7,6] RI
DATA S[7,7] RI
DATA S[7,8] RI
DATA S[8,1] RI
DATA S[8,2] RI
DATA S[8,3] RI
DATA S[8,4] RI
DATA S[8,5] RI
DATA S[8,6] RI
DATA S[8,7] RI
DATA S[8,8] RI
DATA S_50[1,1] RI
DATA S_50[1,2] RI
DATA S_50[1,3] RI
DATA S_50[1,4] RI
DATA S_50[1,5] RI
DATA S_50[1,6] RI
DATA S_50[1,7] RI
DATA S_50[1,8] RI
DATA S_50[2,1] RI
DATA S_50[2,2] RI
DATA S_50[2,3] RI
DATA S_50[2,4] RI
DATA S_50[2,5] RI
DATA S_50[2,6] RI
DATA S_50[2,7] RI
DATA S_50[2,8] RI
DATA S_50[3,1] RI
DATA S_50[3,2] RI
DATA S_50[3,3] RI
DATA S_50[3,4] RI
DATA S_50[3,5] RI
DATA S_50[3,6] RI
DATA S_50[3,7] RI
DATA S_50[3,8] RI
DATA S_50[4,1] RI
DATA S_50[4,2] RI
DATA S_50[4,3] RI
DATA S_50[4,4] RI
DATA S_50[4,5] RI
DATA S_50[4,6] RI
DATA S_50[4,7] RI
DATA S_50[4,8] RI
DATA S_50[5,1] RI
DATA S_50[5,2] RI
DATA S_50[5,3] RI
DATA S_50[5,4] RI
DATA S_50[5,5] RI
DATA S_50[5,6] RI
DATA S_50[5,7] RI
DATA S_50[5,8] RI
DATA S_50[6,1] RI
DATA S_50[6,2] RI
DATA S_50[6,3] RI
DATA S_50[6,4] RI
DATA S_50[6,5] RI
DATA S_50[6,6] RI
DATA S_50[6,7] RI
DATA S_50[6,8] RI
DATA S_50[7,1] RI
DATA S_50[7,2] RI
DATA S_50[7,3] RI
DATA S_50[7,4] RI
DATA S_50[7,5] RI
DATA S_50[7,6] RI
DATA S_50[7,7] RI
DATA S_50[7,8] RI
DATA S_50[8,1] RI
DATA S_50[8,2] RI
DATA S_50[8,3] RI
DATA S_50[8,4] RI
DATA S_50[8,5] RI
DATA S_50[8,6] RI
DATA S_50[8,7] RI
DATA S_50[8,8] RI
DATA S_Z0[1,1] RI
DATA S_Z0[1,2] RI
DATA S_Z0[1,3] RI
DATA S_Z0[1,4] RI
DATA S_Z0[1,5] RI
DATA S_Z0[1,6] RI
DATA S_Z0[1,7] RI
DATA S_Z0[1,8] RI
DATA S_Z0[2,1] RI
DATA S_Z0[2,2] RI
DATA S_Z0[2,3] RI
DATA S_Z0[2,4] RI
DATA S_Z0[2,5] RI
DATA S_Z0[2,6] RI
DATA S_Z0[2,7] RI
DATA S_Z0[2,8] RI
DATA S_Z0[3,1] RI
DATA S_Z0[3,2] RI
DATA S_Z0[3,3] RI
DATA S_Z0[3,4] RI
DATA S_Z0[3,5] RI
DATA S_Z0[3,6] RI
DATA S_Z0[3,7] RI
DATA S_Z0[3,8] RI
DATA S_Z0[4,1] RI
DATA S_Z0[4,2] RI
DATA S_Z0[4,3] RI
DATA S_Z0[4,4] RI
DATA S_Z0[4,5] RI
DATA S_Z0[4,6] RI
DATA S_Z0[4,7] RI
DATA S_Z0[4,8] RI
DATA S_Z0[5,1] RI
DATA S_Z0[5,2] RI
DATA S_Z0[5,3] RI
DATA S_Z0[5,4] RI
DATA S_Z0[5,5] RI
DATA S_Z0[5,6] RI
DATA S_Z0[5,7] RI
DATA S_Z0[5,8] RI
DATA S_Z0[6,1] RI
DATA S_Z0[6,2] RI
DATA S_Z0[6,3] RI
DATA S_Z0[6,4] RI
DATA S_Z0[6,5] RI
DATA S_Z0[6,6] RI
DATA S_Z0[6,7] RI
DATA S_Z0[6,8] RI
DATA S_Z0[7,1] RI
DATA S_Z0[7,2] RI
DATA S_Z0[7,3] RI
DATA S_Z0[7,4] RI
DATA S_Z0[7,5] RI
DATA S_Z0[7,6] RI
DATA S_Z0[7,7] RI
DATA S_Z0[7,8] RI
DATA S_Z0[8,1] RI
DATA S_Z0[8,2] RI
DATA S_Z0[8,3] RI
DATA S_Z0[8,4] RI
DATA S_Z0[8,5] RI
DATA S_Z0[8,6] RI
DATA S_Z0[8,7] RI
DATA S_Z0[8,8] RI
DATA GAMMA[4] RI
DATA GAMMA[5] RI
DATA GAMMA[6] RI
DATA GAMMA[7] RI
DATA GAMMA[1] RI
DATA Z0[1] RI
DATA Z0[2] RI
DATA Z0[3] RI
DATA Z0[4] RI
DATA Z0[5] RI
DATA Z0[6] RI
DATA Z0[7] RI
DATA Z0[8] RI
DATA PORTZ[1] RI
DATA PORTZ[2] RI
DATA PORTZ[3] RI
DATA PORTZ[4] RI
DATA PORTZ[5] RI
DATA PORTZ[6] RI
DATA PORTZ[7] RI
DATA PORTZ[8] RI

VAR_LIST_BEGIN
	 1000000000
	 1222222222
	 1666666667
	 2000000000
	 2333333333
	 3000000000
	 3333333333
	 3666666667
	 4111111111
	 4407407408
	 4703703704
	 5000000000
VAR_LIST_END

BEGIN
	 0.0526608523,	 0.490247438
	 0.146254008,	 0.407478618
	 0.262480194,	 0.325400585
	 0.446157405,	 0.238616581
	 0.590788831,	-0.0705455196
	 0.0144359815,	-0.552749259
	-0.246358673,	-0.382725484
	-0.324975224,	-0.217454704
	-0.446379482,	-0.0611915655
	-0.530231687,	 0.172853905
	-0.424812104,	 0.503356366
	-0.0746469379,	 0.70688358
END
BEGIN
	-0.128560989,	-0.140136895
	-0.185352067,	-0.0665440358
	-0.171418954,	 0.136710576
	-0.0193498984,	 0.238779105
	 0.179907112,	 0.1822911
	 0.146776598,	-0.209928964
	-0.054935538,	-0.238643059
	-0.202623765,	-0.121322604
	-0.202239998,	 0.116690398
	-0.0748027222,	 0.222783374
	 0.0949195496,	 0.21604001
	 0.216020096,	 0.0934757228
END
BEGIN
	-0.129359418,	-0.139126146
	-0.18567321,	-0.0649872627
	-0.169723621,	 0.138363322
	-0.0162656641,	 0.238626387
	 0.18222341,	 0.17922424
	 0.142239203,	-0.211973874
	-0.0597876975,	-0.236426781
	-0.204479305,	-0.115952954
	-0.198129692,	 0.121465756
	-0.0680691009,	 0.223983763
	 0.101472575,	 0.212402579
	 0.219054671,	 0.0857152192
END
BEGIN
	-0.274595438,	-0.136183958
	-0.275307775,	 0.0286564021
	-0.109047788,	 0.202903191
	 0.0360987072,	 0.228917654
	 0.205541023,	 0.161583589
	 0.129015834,	-0.250948541
	-0.0912014217,	-0.247073672
	-0.227058804,	-0.114344586
	-0.235634069,	 0.145426131
	-0.0742359974,	 0.290174791
	 0.166725469,	 0.257541376
	 0.282402422,	 0.047393085
END
BEGIN
	 0.557375002,	-0.255576665
	 0.499201888,	-0.450609426
	 0.126992432,	-0.678573256
	-0.168684043,	-0.567199719
	-0.235276072,	-0.346302909
	-0.194460483,	-0.422054645
	-0.443375758,	-0.428336138
	-0.660293011,	-0.196987999
	-0.597257077,	 0.234830137
	-0.368186902,	 0.366101179
	-0.181364529,	 0.299881967
	-0.182351384,	 0.174524767
END
BEGIN
	 0.250786765,	-0.279335864
	 0.177433141,	-0.308357781
	 0.0718052845,	-0.307344376
	 0.0253571395,	-0.323324244
	-0.0643849589,	-0.358525231
	-0.284587129,	-0.214002989
	-0.285284114,	-0.110414863
	-0.265685387,	-0.0591726781
	-0.280374611,	-0.0180810869
	-0.307928278,	 0.0369305811
	-0.311254733,	 0.125962653
	-0.259801372,	 0.213636592
END
BEGIN
	-0.0615504573,	-0.180807113
	-0.130800363,	-0.148868368
	-0.221524998,	-0.00273142868
	-0.190231976,	 0.150934497
	-0.0447822804,	 0.256522541
	 0.253283875,	 0.0657049008
	 0.225486887,	-0.109290678
	 0.104374669,	-0.218187638
	-0.101851831,	-0.216230189
	-0.207802748,	-0.120562351
	-0.239693742,	 0.022324882
	-0.179717261,	 0.158122268
END
BEGIN
	-0.0611651994,	-0.180881085
	-0.130421717,	-0.149169093
	-0.221528199,	-0.00342111492
	-0.190810485,	 0.150258146
	-0.0458705615,	 0.25639831
	 0.253011679,	 0.0670229069
	 0.226131344,	-0.108024518
	 0.105728553,	-0.217533878
	-0.100367192,	-0.216900075
	-0.206942675,	-0.121995787
	-0.239856167,	 0.0207181716
	-0.180693189,	 0.157153897
END
BEGIN
	-0.128560989,	-0.140136895
	-0.185352067,	-0.0665440358
	-0.171418954,	 0.136710576
	-0.0193498984,	 0.238779105
	 0.179907112,	 0.1822911
	 0.146776598,	-0.209928964
	-0.054935538,	-0.238643059
	-0.202623765,	-0.121322604
	-0.202239998,	 0.116690398
	-0.0748027222,	 0.222783374
	 0.0949195496,	 0.21604001
	 0.216020096,	 0.0934757228
END
BEGIN
	 0.0288840228,	 0.300081797
	 0.0602745445,	 0.238751488
	 0.0700088069,	 0.176950668
	 0.0849187476,	 0.170690038
	 0.12609419,	 0.160636636
	 0.177057774,	 0.061295786
	 0.157750433,	 0.027019774
	 0.146658665,	 0.0242326505
	 0.180849496,	 0.0262810228
	 0.227880661,	 0.000102718502
	 0.277021997,	-0.0623195405
	 0.310522285,	-0.170386167
END
BEGIN
	-0.134621101,	-0.188857431
	-0.184110578,	-0.110937306
	-0.190608736,	 0.0501993656
	-0.123091842,	 0.146964697
	-0.0110235958,	 0.186587058
	 0.153400979,	 0.0601513234
	 0.149185946,	-0.0270302851
	 0.113250968,	-0.0894734879
	 0.044463461,	-0.144223511
	-0.0201722467,	-0.166766859
	-0.107545367,	-0.163207181
	-0.208529095,	-0.106883969
END
BEGIN
	 0.0144855485,	 0.0627883655
	 0.0502737973,	 0.026829488
	 0.0164444661,	-0.0474684707
	-0.0413023698,	-0.0259586662
	-0.032941113,	 0.0355511022
	 0.0411955393,	-0.0210539193
	-0.0114987619,	-0.0433943606
	-0.0451915528,	 0.000640615598
	 0.00930296912,	 0.0483124253
	 0.0526003306,	 0.0109794216
	 0.0325081092,	-0.0496106562
	-0.0398787259,	-0.0530608553
END
BEGIN
	 0.0241543822,	-0.279085029
	-0.0751410399,	-0.284152952
	-0.276916522,	-0.18135585
	-0.361462783,	 0.00643094989
	-0.304960322,	 0.233547083
	 0.134914258,	 0.350987056
	 0.291530207,	 0.20553186
	 0.343307378,	 0.0211718689
	 0.271682881,	-0.213194015
	 0.137441702,	-0.326551859
	-0.0486936191,	-0.360326065
	-0.235633454,	-0.284618608
END
BEGIN
	-0.0795122234,	-0.00305503552
	-0.0664664533,	 0.0330569831
	-0.00450419031,	 0.0706946409
	 0.049392448,	 0.0505703548
	 0.0693458766,	-0.00563116006
	-0.015281078,	-0.0566977501
	-0.0449643265,	-0.0254741796
	-0.046110008,	 0.00935305117
	-0.0219844198,	 0.0419160907
	 0.00657505967,	 0.0518639942
	 0.0430605905,	 0.0431768525
	 0.0732841617,	 0.00511074665
END
BEGIN
	 0.8050288,	-0.162788289
	 0.787209906,	-0.301748028
	 0.667197459,	-0.522128378
	 0.54431571,	-0.628227748
	 0.425450969,	-0.694964902
	 0.202527999,	-0.808214919
	 0.0559957035,	-0.854263844
	-0.115699093,	-0.860743595
	-0.344560346,	-0.787473999
	-0.473546285,	-0.69071963
	-0.571179387,	-0.563449479
	-0.624684368,	-0.410229104
END
BEGIN
	-0.0482012166,	-0.229623791
	-0.108997628,	-0.189314608
	-0.182884719,	-0.085689739
	-0.197041855,	 0.0069140554
	-0.165794779,	 0.0974908186
	-0.00984802325,	 0.167729878
	 0.0543075226,	 0.143474497
	 0.0958323548,	 0.108714814
	 0.137684891,	 0.0602366261
	 0.165757327,	 0.0171440401
	 0.18751226,	-0.0477306563
	 0.184191495,	-0.140912676
END
BEGIN
	-0.129359418,	-0.139126146
	-0.18567321,	-0.0649872627
	-0.169723621,	 0.138363322
	-0.0162656641,	 0.238626387
	 0.18222341,	 0.17922424
	 0.142239203,	-0.211973874
	-0.0597876975,	-0.236426781
	-0.204479305,	-0.115952954
	-0.198129692,	 0.121465756
	-0.0680691009,	 0.223983763
	 0.101472575,	 0.212402579
	 0.219054671,	 0.0857152192
END
BEGIN
	-0.134621101,	-0.188857431
	-0.184110578,	-0.110937306
	-0.190608736,	 0.0501993658
	-0.123091842,	 0.146964697
	-0.0110235958,	 0.186587058
	 0.153400979,	 0.0601513235
	 0.149185946,	-0.0270302851
	 0.113250968,	-0.0894734879
	 0.044463461,	-0.144223511
	-0.0201722467,	-0.166766859
	-0.107545367,	-0.163207181
	-0.208529095,	-0.106883969
END
BEGIN
	 0.0305949701,	 0.298384787
	 0.0611119443,	 0.236776893
	 0.0695842923,	 0.175695647
	 0.0844543669,	 0.170179353
	 0.125818789,	 0.16032176
	 0.175978628,	 0.0623075504
	 0.15775678,	 0.0299374377
	 0.149707515,	 0.0280105328
	 0.188896397,	 0.027081755
	 0.237783438,	-0.00405052465
	 0.285811957,	-0.0732479474
	 0.313305962,	-0.188438386
END
BEGIN
	 0.0150193842,	 0.0629556508
	 0.050643106,	 0.0267601417
	 0.0161465728,	-0.0472114703
	-0.0413352937,	-0.0249128446
	-0.0319924895,	 0.0365547688
	 0.0413489127,	-0.0214176738
	-0.0117644487,	-0.0429420008
	-0.0447433882,	 0.00154245868
	 0.010226979,	 0.0481163824
	 0.0525310957,	 0.0102588594
	 0.0313322169,	-0.0494070984
	-0.0405248689,	-0.0510269295
END
BEGIN
	 0.0224425764,	-0.279002766
	-0.0771887299,	-0.28331831
	-0.278404639,	-0.178213428
	-0.360683169,	 0.0109892063
	-0.300724344,	 0.237506384
	 0.141189857,	 0.347052846
	 0.294623941,	 0.198360224
	 0.342030482,	 0.0130530911
	 0.264712862,	-0.21898785
	 0.127790273,	-0.328624579
	-0.0591650041,	-0.35732027
	-0.244268478,	-0.27595335
END
BEGIN
	-0.0796515606,	-0.00236236779
	-0.0662374546,	 0.03375218
	-0.00376404819,	 0.0707952196
	 0.0498913728,	 0.0500013604
	 0.069025554,	-0.00639858958
	-0.0160963401,	-0.0556954762
	-0.0447791317,	-0.0239126902
	-0.0447570167,	 0.0106371401
	-0.0196509005,	 0.0417535378
	 0.00881309475,	 0.0502955809
	 0.0443380205,	 0.0401737715
	 0.0725397706,	 0.00121822314
END
BEGIN
	-0.050026154,	-0.229135384
	-0.110811965,	-0.188129231
	-0.183902218,	-0.0830902118
	-0.196669458,	 0.0102000043
	-0.163597774,	 0.100549209
	-0.005710363,	 0.167539392
	 0.0580146499,	 0.141583512
	 0.0986739973,	 0.105514854
	 0.138953242,	 0.0555492015
	 0.165421669,	 0.0115201739
	 0.184751743,	-0.0539835309
	 0.177904624,	-0.146826995
END
BEGIN
	 0.805470447,	-0.164002354
	 0.787315626,	-0.303272618
	 0.666548853,	-0.523939579
	 0.5431507,	-0.630077268
	 0.423804876,	-0.696846284
	 0.199226191,	-0.810054323
	 0.0515075251,	-0.855322952
	-0.121016345,	-0.860279415
	-0.349721103,	-0.784270109
	-0.47750901,	-0.68567159
	-0.572884584,	-0.556991626
	-0.622922243,	-0.403548535
END
BEGIN
	-0.274595438,	-0.136183958
	-0.275307775,	 0.0286564021
	-0.109047788,	 0.202903191
	 0.0360987072,	 0.228917654
	 0.205541023,	 0.161583589
	 0.129015834,	-0.250948541
	-0.0912014217,	-0.247073672
	-0.227058804,	-0.114344586
	-0.235634069,	 0.145426131
	-0.0742359974,	 0.290174791
	 0.166725469,	 0.257541376
	 0.282402422,	 0.047393085
END
BEGIN
	 0.0144855485,	 0.0627883655
	 0.0502737973,	 0.026829488
	 0.0164444661,	-0.0474684707
	-0.0413023698,	-0.0259586662
	-0.032941113,	 0.0355511022
	 0.0411955393,	-0.0210539193
	-0.0114987619,	-0.0433943606
	-0.0451915528,	 0.000640615598
	 0.00930296912,	 0.0483124253
	 0.0526003306,	 0.0109794216
	 0.0325081092,	-0.0496106562
	-0.0398787259,	-0.0530608553
END
BEGIN
	 0.0150193842,	 0.0629556508
	 0.050643106,	 0.0267601417
	 0.0161465727,	-0.0472114703
	-0.0413352937,	-0.0249128446
	-0.0319924895,	 0.0365547688
	 0.0413489127,	-0.0214176738
	-0.0117644487,	-0.0429420008
	-0.0447433882,	 0.00154245868
	 0.010226979,	 0.0481163824
	 0.0525310957,	 0.0102588594
	 0.0313322169,	-0.0494070984
	-0.0405248689,	-0.0510269295
END
BEGIN
	 0.197260879,	-0.424406126
	-0.106049909,	-0.449283563
	-0.428512317,	-0.0323613466
	-0.274293844,	 0.28958421
	 0.0394291376,	 0.369780971
	 0.268327576,	-0.0936069341
	 0.06504094,	-0.203937524
	-0.0900435502,	-0.110892848
	-0.0337754043,	 0.0628593032
	 0.0903226011,	 0.0299362104
	 0.102473463,	-0.116666745
	-0.0367522643,	-0.207223014
END
BEGIN
	-0.208192503,	-0.0164088439
	-0.162481482,	 0.110150717
	 0.0598346451,	 0.149895634
	 0.121125447,	 0.0253554112
	 0.0671394601,	-0.046114594
	 0.00859375455,	-0.0858191007
	-0.0808129215,	-0.0802233885
	-0.126681533,	 0.0276966413
	 0.00102287363,	 0.128344005
	 0.0858279132,	 0.0695518998
	 0.0801040578,	-0.00340600816
	 0.0620255961,	-0.0143530186
END
BEGIN
	 0.0480162768,	-0.788903483
	-0.269032785,	-0.764171482
	-0.772115508,	-0.356608211
	-0.858009113,	 0.151186371
	-0.627356846,	 0.616240656
	 0.338885447,	 0.838912983
	 0.772832424,	 0.51052857
	 0.939166208,	-0.0294195588
	 0.615093305,	-0.710586926
	 0.152576943,	-0.918973438
	-0.344810271,	-0.855555265
	-0.739991582,	-0.541102719
END
BEGIN
	-0.0120071751,	 0.0635413527
	 0.0312864603,	 0.0479909654
	 0.0432558874,	-0.0268537969
	-0.00941393606,	-0.0488348521
	-0.0490341091,	-0.00656317691
	 0.0345812589,	 0.0321620589
	 0.0408006001,	-0.0208430486
	-0.00419683678,	-0.0455902853
	-0.0488783818,	 0.00490585705
	-0.0208817083,	 0.0492599667
	 0.0376994132,	 0.0459445884
	 0.0654788193,	-0.0148284655
END
BEGIN
	-0.0119784287,	 0.0634927445
	 0.0313405027,	 0.0479213148
	 0.0432425642,	-0.0270321442
	-0.00955941045,	-0.0490275235
	-0.0493331196,	-0.00667283822
	 0.034380276,	 0.0324596023
	 0.0408319318,	-0.0206039886
	-0.00412334502,	-0.0456127392
	-0.0492536241,	 0.00472557386
	-0.0216160046,	 0.0494764424
	 0.0370606163,	 0.0468412969
	 0.065505853,	-0.0135358324
END
BEGIN
	 0.557375002,	-0.255576665
	 0.499201888,	-0.450609426
	 0.126992432,	-0.678573256
	-0.168684043,	-0.567199719
	-0.235276072,	-0.346302909
	-0.194460483,	-0.422054645
	-0.443375758,	-0.428336138
	-0.660293011,	-0.196987999
	-0.597257077,	 0.234830137
	-0.368186902,	 0.366101179
	-0.181364529,	 0.299881967
	-0.182351384,	 0.174524767
END
BEGIN
	 0.0241543822,	-0.279085029
	-0.0751410399,	-0.284152952
	-0.276916522,	-0.18135585
	-0.361462783,	 0.00643094989
	-0.304960322,	 0.233547083
	 0.134914258,	 0.350987056
	 0.291530207,	 0.20553186
	 0.343307378,	 0.0211718689
	 0.271682881,	-0.213194015
	 0.137441702,	-0.326551859
	-0.0486936191,	-0.360326065
	-0.235633454,	-0.284618608
END
BEGIN
	 0.0224425764,	-0.279002766
	-0.0771887299,	-0.28331831
	-0.278404639,	-0.178213428
	-0.360683169,	 0.0109892063
	-0.300724344,	 0.237506384
	 0.141189857,	 0.347052846
	 0.294623941,	 0.198360224
	 0.342030482,	 0.0130530911
	 0.264712862,	-0.21898785
	 0.127790273,	-0.328624579
	-0.0591650041,	-0.35732027
	-0.244268478,	-0.27595335
END
BEGIN
	-0.208192503,	-0.0164088439
	-0.162481482,	 0.110150717
	 0.0598346451,	 0.149895634
	 0.121125447,	 0.0253554112
	 0.0671394601,	-0.046114594
	 0.00859375455,	-0.0858191007
	-0.0808129215,	-0.0802233885
	-0.126681533,	 0.0276966413
	 0.00102287363,	 0.128344005
	 0.0858279132,	 0.0695518998
	 0.0801040578,	-0.00340600816
	 0.0620255961,	-0.0143530186
END
BEGIN
	-0.164697097,	 0.4144065
	-0.0193063799,	 0.309814607
	 0.040431846,	-0.0320867631
	-0.163198735,	-0.210600568
	-0.427515587,	-0.136891856
	-0.307001021,	 0.300779929
	-0.0795766188,	 0.245597884
	 0.0124996062,	 0.0449904321
	-0.14217731,	-0.208487765
	-0.367991814,	-0.230675813
	-0.560494233,	-0.0712914092
	-0.570745507,	 0.197389419
END
BEGIN
	 0.0870240618,	-0.240654251
	 0.00637066748,	-0.252694422
	-0.13593589,	-0.175968633
	-0.159523842,	-0.0701095053
	-0.113433186,	-0.00909248883
	-0.103341317,	-0.0245255809
	-0.130165517,	 0.0125282782
	-0.122960125,	 0.0656073358
	-0.0735525786,	 0.111658328
	-0.0334782132,	 0.115099835
	-0.00979025009,	 0.0946246395
	-0.0287190988,	 0.0754536137
END
BEGIN
	 0.134953104,	-0.247008084
	 0.0721395548,	-0.286969507
	-0.100604237,	-0.319192608
	-0.254890921,	-0.26359728
	-0.373259768,	-0.115302395
	-0.288180143,	 0.253182713
	-0.138774522,	 0.33645204
	 0.0107367289,	 0.350527341
	 0.193444478,	 0.29321841
	 0.29731824,	 0.20226385
	 0.362037122,	 0.0665881124
	 0.3607559,	-0.0950404914
END
BEGIN
	 0.135417133,	-0.24673368
	 0.0727686052,	-0.286785642
	-0.0996452546,	-0.319372212
	-0.253820367,	-0.264360869
	-0.37255156,	-0.116792571
	-0.289275059,	 0.251475116
	-0.140609733,	 0.335341403
	 0.00845155778,	 0.350294113
	 0.191234299,	 0.294497875
	 0.295851926,	 0.204523457
	 0.361912044,	 0.0693272254
	 0.362179447,	-0.0929032616
END
BEGIN
	 0.250786765,	-0.279335864
	 0.177433141,	-0.308357781
	 0.0718052845,	-0.307344376
	 0.0253571395,	-0.323324244
	-0.0643849589,	-0.358525231
	-0.284587129,	-0.214002989
	-0.285284114,	-0.110414863
	-0.265685387,	-0.0591726781
	-0.280374611,	-0.0180810869
	-0.307928278,	 0.0369305811
	-0.311254733,	 0.125962653
	-0.259801372,	 0.213636592
END
BEGIN
	-0.0795122234,	-0.00305503552
	-0.0664664533,	 0.0330569831
	-0.00450419032,	 0.0706946409
	 0.049392448,	 0.0505703548
	 0.0693458766,	-0.00563116006
	-0.015281078,	-0.0566977501
	-0.0449643265,	-0.0254741796
	-0.046110008,	 0.00935305117
	-0.0219844198,	 0.0419160907
	 0.00657505967,	 0.0518639942
	 0.0430605905,	 0.0431768525
	 0.0732841617,	 0.00511074665
END
BEGIN
	-0.0796515606,	-0.00236236779
	-0.0662374546,	 0.03375218
	-0.00376404818,	 0.0707952197
	 0.0498913728,	 0.0500013604
	 0.069025554,	-0.00639858958
	-0.0160963401,	-0.0556954762
	-0.0447791317,	-0.0239126902
	-0.0447570167,	 0.0106371401
	-0.0196509005,	 0.0417535378
	 0.00881309475,	 0.0502955809
	 0.0443380205,	 0.0401737715
	 0.0725397706,	 0.00121822314
END
BEGIN
	 0.0480162768,	-0.788903483
	-0.269032785,	-0.764171482
	-0.772115508,	-0.356608211
	-0.858009113,	 0.151186371
	-0.627356846,	 0.616240656
	 0.338885447,	 0.838912983
	 0.772832424,	 0.51052857
	 0.939166208,	-0.0294195588
	 0.615093305,	-0.710586926
	 0.152576943,	-0.918973438
	-0.344810271,	-0.855555265
	-0.739991582,	-0.541102719
END
BEGIN
	 0.0870240618,	-0.240654251
	 0.00637066748,	-0.252694422
	-0.13593589,	-0.175968633
	-0.159523842,	-0.0701095053
	-0.113433186,	-0.00909248883
	-0.103341317,	-0.0245255809
	-0.130165517,	 0.0125282782
	-0.122960125,	 0.0656073358
	-0.0735525786,	 0.111658328
	-0.0334782132,	 0.115099835
	-0.00979025009,	 0.0946246395
